50 03 00 30 00 17 08 4A
500300300017084A

500300300017084A

50 03 00 2E 00 02 A9 83 
50 03 00 7F 00 03 39 92
50 03 00 82 00 03 A8 62
50 03 00 65 00 01 99 94
50 03 00 94 00 01 C8 67


50 03 00 30 00 17 08 4A

# Define the hex string to be sent
    #hex_string = '500300300017084A'

        hex_string = '5003003400034984'

        500306f9a40252042f5623
