SUDT ACCESSPORT LOG FILE - Monitor mode

Monitor: COM6
Create Time: 2024-10-11, 17:27:34
Computer Name: VICTUS
System version:  (Build 9200)

#	Time		Duration (s)	Process		Request                             	Port	Result	Data ( Hex )	

1	17:26:24.711	0.00726310	WitMotion.exe	IRP_MJ_CREATE                       	COM6	SUCCESS	Port Opened	
2	17:26:24.721	0.00397940	WitMotion.exe	IOCTL_SERIAL_SET_BAUD_RATE          	COM6	SUCCESS	Baud Rate: 230400	
3	17:26:24.725	0.00000160	WitMotion.exe	IOCTL_SERIAL_SET_RTS                	COM6	SUCCESS		
4	17:26:24.725	0.00096930	WitMotion.exe	IOCTL_SERIAL_CLR_DTR                	COM6	SUCCESS		
5	17:26:24.726	0.00000160	WitMotion.exe	IOCTL_SERIAL_SET_LINE_CONTROL       	COM6	SUCCESS	StopBits: 1, Parity: No, DataBits: 8	
6	17:26:24.726	0.00000770	WitMotion.exe	IOCTL_SERIAL_SET_CHARS              	COM6	SUCCESS	EofChar: 0x1A, ErrorChar: 0x0, BreakChar: 0x0, EventChar: 0x1A, XonChar: 0x11, XoffChar: 0x13	
7	17:26:24.726	0.00298010	WitMotion.exe	IOCTL_SERIAL_SET_HANDFLOW           	COM6	SUCCESS	ControlHandShake: 0x0, FlowReplace: 0x40, XonLimit: 17206, XoffLimit: 17206	
8	17:26:24.730	0.00297120	WitMotion.exe	IOCTL_SERIAL_SET_BAUD_RATE          	COM6	SUCCESS	Baud Rate: 230400	
9	17:26:24.732	0.00000100	WitMotion.exe	IOCTL_SERIAL_SET_RTS                	COM6	SUCCESS		
10	17:26:24.732	0.00000070	WitMotion.exe	IOCTL_SERIAL_CLR_DTR                	COM6	SUCCESS		
11	17:26:24.732	0.00000060	WitMotion.exe	IOCTL_SERIAL_SET_LINE_CONTROL       	COM6	SUCCESS	StopBits: 1, Parity: No, DataBits: 8	
12	17:26:24.732	0.00000060	WitMotion.exe	IOCTL_SERIAL_SET_CHARS              	COM6	SUCCESS	EofChar: 0x1A, ErrorChar: 0x0, BreakChar: 0x0, EventChar: 0x1A, XonChar: 0x11, XoffChar: 0x13	
13	17:26:24.732	0.00297690	WitMotion.exe	IOCTL_SERIAL_SET_HANDFLOW           	COM6	SUCCESS	ControlHandShake: 0x0, FlowReplace: 0x40, XonLimit: 17206, XoffLimit: 17206	
14	17:26:24.735	0.00001000	WitMotion.exe	IOCTL_SERIAL_CLR_DTR                	COM6	SUCCESS		
15	17:26:24.735	0.00294780	WitMotion.exe	IOCTL_SERIAL_SET_BAUD_RATE          	COM6	SUCCESS	Baud Rate: 230400	
16	17:26:24.738	0.00099390	WitMotion.exe	IOCTL_SERIAL_CLR_RTS                	COM6	SUCCESS		
17	17:26:24.739	0.00000110	WitMotion.exe	IOCTL_SERIAL_CLR_DTR                	COM6	SUCCESS		
18	17:26:24.739	0.00000290	WitMotion.exe	IOCTL_SERIAL_SET_LINE_CONTROL       	COM6	SUCCESS	StopBits: 1, Parity: No, DataBits: 8	
19	17:26:24.739	0.00000060	WitMotion.exe	IOCTL_SERIAL_SET_CHARS              	COM6	SUCCESS	EofChar: 0x1A, ErrorChar: 0x0, BreakChar: 0x0, EventChar: 0x1A, XonChar: 0x11, XoffChar: 0x13	
20	17:26:24.739	0.00296950	WitMotion.exe	IOCTL_SERIAL_SET_HANDFLOW           	COM6	SUCCESS	ControlHandShake: 0x0, FlowReplace: 0x0, XonLimit: 17206, XoffLimit: 17206	
21	17:26:24.742	0.00000120	WitMotion.exe	IOCTL_SERIAL_CLR_RTS                	COM6	SUCCESS		
22	17:26:24.742	0.00000060	WitMotion.exe	IOCTL_SERIAL_SET_TIMEOUTS           	COM6	SUCCESS	ReadIntervalTimeout: -1, ReadTotalTimeoutMultiplier: -1, ReadTotalTimeoutConstant: -2, WriteTotalTimeoutMultiplier: 0, WriteTotalTimeoutConstant: 0	
23	17:26:24.742	0.00000060	WitMotion.exe	IOCTL_SERIAL_SET_WAIT_MASK          	COM6	SUCCESS	Mask: RXCHAR RXFLAG CTS DSR RLSD BREAK ERR RING	
24	17:26:24.743	0.00000440	WitMotion.exe	IOCTL_SERIAL_SET_QUEUE_SIZE         	COM6	SUCCESS	InSize: 1024000, OutSize: 1024000	
25	17:26:24.743	1.81196590	WitMotion.exe	IOCTL_SERIAL_WAIT_ON_MASK           	COM6	SUCCESS		
26	17:26:24.743	0.00000620	WitMotion.exe	IOCTL_SERIAL_PURGE                  	COM6	SUCCESS	Purge: TXABORT TXCLEAR	
27	17:26:26.553	0.00010020	WitMotion.exe	IRP_MJ_WRITE                        	COM6	SUCCESS	Length: 8, Data: 50 03 00 30 00 17 08 4A 	
28	17:26:26.555	0.00000390	WitMotion.exe	IOCTL_SERIAL_WAIT_ON_MASK           	COM6	SUCCESS		
29	17:26:26.555	0.00193030	WitMotion.exe	IOCTL_SERIAL_WAIT_ON_MASK           	COM6	SUCCESS		
30	17:26:26.555	0.00000170	WitMotion.exe	IRP_MJ_READ                         	COM6	SUCCESS	Length: 32, Data: 50 03 2E 0A 18 0E 09 2A 15 03 CE F9 18 02 8D 03 1C 00 00 00 00 00 00 00 00 00 00 00 00 00 00 00 	
31	17:26:26.557	0.00000150	WitMotion.exe	IOCTL_SERIAL_WAIT_ON_MASK           	COM6	SUCCESS		
32	17:26:26.557	0.00581880	WitMotion.exe	IOCTL_SERIAL_WAIT_ON_MASK           	COM6	SUCCESS		
33	17:26:26.557	0.00000150	WitMotion.exe	IRP_MJ_READ                         	COM6	SUCCESS	Length: 19, Data: 00 00 00 08 30 00 00 00 00 00 00 00 00 00 00 00 00 96 76 	
34	17:26:26.561	0.00008710	WitMotion.exe	IRP_MJ_WRITE                        	COM6	SUCCESS	Length: 8, Data: 50 03 00 2E 00 02 A9 83 	
35	17:26:26.564	0.00000540	WitMotion.exe	IOCTL_SERIAL_WAIT_ON_MASK           	COM6	SUCCESS		
36	17:26:26.564	0.02605030	WitMotion.exe	IOCTL_SERIAL_WAIT_ON_MASK           	COM6	SUCCESS		
37	17:26:26.564	0.00000160	WitMotion.exe	IRP_MJ_READ                         	COM6	SUCCESS	Length: 9, Data: 50 03 04 C1 07 89 D2 D1 06 	
38	17:26:26.586	0.00008720	WitMotion.exe	IRP_MJ_WRITE                        	COM6	SUCCESS	Length: 8, Data: 50 03 00 7F 00 03 39 92 	
40	17:26:26.589	0.00466260	WitMotion.exe	IOCTL_SERIAL_WAIT_ON_MASK           	COM6	SUCCESS		
41	17:26:26.589	0.00000220	WitMotion.exe	IRP_MJ_READ                         	COM6	SUCCESS	Length: 11, Data: 50 03 06 00 00 00 00 00 00 D0 E6 	
42	17:26:26.591	0.00011250	WitMotion.exe	IRP_MJ_WRITE                        	COM6	SUCCESS	Length: 8, Data: 50 03 00 82 00 03 A8 62 	
43	17:26:26.594	0.00000490	WitMotion.exe	IOCTL_SERIAL_WAIT_ON_MASK           	COM6	SUCCESS		
45	17:26:26.594	0.00000700	WitMotion.exe	IRP_MJ_READ                         	COM6	SUCCESS	Length: 11, Data: 50 03 06 00 00 00 00 00 00 D0 E6 	
46	17:26:26.599	0.00010980	WitMotion.exe	IRP_MJ_WRITE                        	COM6	SUCCESS	Length: 8, Data: 50 03 00 65 00 01 99 94 	
47	17:26:26.600	0.00000560	WitMotion.exe	IOCTL_SERIAL_WAIT_ON_MASK           	COM6	SUCCESS		
48	17:26:26.600	0.02534290	WitMotion.exe	IOCTL_SERIAL_WAIT_ON_MASK           	COM6	SUCCESS		
49	17:26:26.600	0.00000220	WitMotion.exe	IRP_MJ_READ                         	COM6	SUCCESS	Length: 7, Data: 50 03 02 00 64 44 63 	
50	17:26:26.624	0.00009350	WitMotion.exe	IRP_MJ_WRITE                        	COM6	SUCCESS	Length: 8, Data: 50 03 00 94 00 01 C8 67 	
51	17:26:26.626	0.00000170	WitMotion.exe	IOCTL_SERIAL_WAIT_ON_MASK           	COM6	SUCCESS		
52	17:26:26.626	0.00793120	WitMotion.exe	IOCTL_SERIAL_WAIT_ON_MASK           	COM6	SUCCESS		
53	17:26:26.626	0.00000160	WitMotion.exe	IRP_MJ_READ                         	COM6	SUCCESS	Length: 7, Data: 50 03 02 00 00 45 88 	
54	17:26:26.632	0.00013120	WitMotion.exe	IRP_MJ_WRITE                        	COM6	SUCCESS	Length: 8, Data: 50 03 00 30 00 17 08 4A 	
55	17:26:26.634	0.00000650	WitMotion.exe	IOCTL_SERIAL_WAIT_ON_MASK           	COM6	SUCCESS		
56	17:26:26.634	0.00207560	WitMotion.exe	IOCTL_SERIAL_WAIT_ON_MASK           	COM6	SUCCESS		
57	17:26:26.634	0.00000170	WitMotion.exe	IRP_MJ_READ                         	COM6	SUCCESS	Length: 32, Data: 50 03 2E 0A 18 0E 09 2B 15 00 36 F9 20 02 8E 03 1C 00 00 00 00 00 00 00 00 00 00 00 00 00 00 00 	
58	17:26:26.636	0.00000100	WitMotion.exe	IOCTL_SERIAL_WAIT_ON_MASK           	COM6	SUCCESS		
59	17:26:26.636	0.00587420	WitMotion.exe	IOCTL_SERIAL_WAIT_ON_MASK           	COM6	SUCCESS		
60	17:26:26.636	0.00000160	WitMotion.exe	IRP_MJ_READ                         	COM6	SUCCESS	Length: 19, Data: 00 00 00 08 49 00 00 00 00 00 00 00 00 00 00 00 00 8B E3 	
61	17:26:26.641	0.00013200	WitMotion.exe	IRP_MJ_WRITE                        	COM6	SUCCESS	Length: 8, Data: 50 03 00 30 00 17 08 4A 	
63	17:26:26.642	0.00205940	WitMotion.exe	IOCTL_SERIAL_WAIT_ON_MASK           	COM6	SUCCESS		
64	17:26:26.642	0.00000150	WitMotion.exe	IRP_MJ_READ                         	COM6	SUCCESS	Length: 32, Data: 50 03 2E 0A 18 0E 09 2B 15 00 3B F9 17 02 87 03 1F 00 00 00 00 00 00 00 00 00 00 00 00 00 00 00 	
65	17:26:26.644	0.00000360	WitMotion.exe	IOCTL_SERIAL_WAIT_ON_MASK           	COM6	SUCCESS		
66	17:26:26.644	0.00657310	WitMotion.exe	IOCTL_SERIAL_WAIT_ON_MASK           	COM6	SUCCESS		
67	17:26:26.644	0.00000140	WitMotion.exe	IRP_MJ_READ                         	COM6	SUCCESS	Length: 19, Data: 00 00 00 08 30 00 00 00 00 00 00 00 00 00 00 00 00 8F D5 	
68	17:26:26.649	0.00009350	WitMotion.exe	IRP_MJ_WRITE                        	COM6	SUCCESS	Length: 8, Data: 50 03 00 30 00 17 08 4A 	
70	17:26:26.651	0.00205080	WitMotion.exe	IOCTL_SERIAL_WAIT_ON_MASK           	COM6	SUCCESS		
71	17:26:26.651	0.00000190	WitMotion.exe	IRP_MJ_READ                         	COM6	SUCCESS	Length: 32, Data: 50 03 2E 0A 18 0E 09 2B 15 00 45 F9 18 02 92 03 19 00 00 00 00 00 00 00 00 00 00 00 00 00 00 00 	
73	17:26:26.653	0.00845940	WitMotion.exe	IOCTL_SERIAL_WAIT_ON_MASK           	COM6	SUCCESS		
74	17:26:26.653	0.00000130	WitMotion.exe	IRP_MJ_READ                         	COM6	SUCCESS	Length: 19, Data: 00 00 00 08 1D 00 00 00 00 00 00 00 00 00 00 00 00 CA 40 	
75	17:26:26.659	0.00011500	WitMotion.exe	IRP_MJ_WRITE                        	COM6	SUCCESS	Length: 8, Data: 50 03 00 30 00 17 08 4A 	
76	17:26:26.662	0.00000190	WitMotion.exe	IOCTL_SERIAL_WAIT_ON_MASK           	COM6	SUCCESS		
77	17:26:26.662	0.00188360	WitMotion.exe	IOCTL_SERIAL_WAIT_ON_MASK           	COM6	SUCCESS		
78	17:26:26.662	0.00000180	WitMotion.exe	IRP_MJ_READ                         	COM6	SUCCESS	Length: 32, Data: 50 03 2E 0A 18 0E 09 2B 15 00 4F F9 26 02 90 03 1B 00 00 00 00 00 00 00 00 00 00 00 00 00 00 00 	
79	17:26:26.663	0.00000140	WitMotion.exe	IOCTL_SERIAL_WAIT_ON_MASK           	COM6	SUCCESS		
80	17:26:26.663	0.00698890	WitMotion.exe	IOCTL_SERIAL_WAIT_ON_MASK           	COM6	SUCCESS		
81	17:26:26.663	0.00000160	WitMotion.exe	IRP_MJ_READ                         	COM6	SUCCESS	Length: 19, Data: 00 00 00 08 36 00 00 00 00 00 00 00 00 00 00 00 00 B4 B1 	
82	17:26:26.668	0.00010920	WitMotion.exe	IRP_MJ_WRITE                        	COM6	SUCCESS	Length: 8, Data: 50 03 00 30 00 17 08 4A 	
84	17:26:26.670	0.00199250	WitMotion.exe	IOCTL_SERIAL_WAIT_ON_MASK           	COM6	SUCCESS		
85	17:26:26.670	0.00000180	WitMotion.exe	IRP_MJ_READ                         	COM6	SUCCESS	Length: 32, Data: 50 03 2E 0A 18 0E 09 2B 15 00 59 F9 1A 02 92 03 1D 00 00 00 00 00 00 00 00 00 00 00 00 00 00 00 	
86	17:26:26.672	0.00000180	WitMotion.exe	IOCTL_SERIAL_WAIT_ON_MASK           	COM6	SUCCESS		
87	17:26:26.672	0.00782740	WitMotion.exe	IOCTL_SERIAL_WAIT_ON_MASK           	COM6	SUCCESS		
88	17:26:26.672	0.00000220	WitMotion.exe	IRP_MJ_READ                         	COM6	SUCCESS	Length: 19, Data: 00 00 00 08 29 00 00 00 00 00 00 00 00 00 00 00 00 FD 05 	
89	17:26:26.679	0.00010160	WitMotion.exe	IRP_MJ_WRITE                        	COM6	SUCCESS	Length: 8, Data: 50 03 00 30 00 17 08 4A 	
93	17:26:26.683	0.00000560	WitMotion.exe	IOCTL_SERIAL_WAIT_ON_MASK           	COM6	SUCCESS		
94	17:26:26.683	0.00836430	WitMotion.exe	IOCTL_SERIAL_WAIT_ON_MASK           	COM6	SUCCESS		
95	17:26:26.683	0.00000170	WitMotion.exe	IRP_MJ_READ                         	COM6	SUCCESS	Length: 19, Data: 00 00 00 08 23 00 00 00 00 00 00 00 00 00 00 00 00 45 24 	
96	17:26:26.689	0.00009260	WitMotion.exe	IRP_MJ_WRITE                        	COM6	SUCCESS	Length: 8, Data: 50 03 00 30 00 17 08 4A 	
97	17:26:26.691	0.00000200	WitMotion.exe	IOCTL_SERIAL_WAIT_ON_MASK           	COM6	SUCCESS		
98	17:26:26.691	0.00196140	WitMotion.exe	IOCTL_SERIAL_WAIT_ON_MASK           	COM6	SUCCESS		
99	17:26:26.691	0.00000180	WitMotion.exe	IRP_MJ_READ                         	COM6	SUCCESS	Length: 32, Data: 50 03 2E 0A 18 0E 09 2B 15 00 6D F9 22 02 89 03 1C 00 00 00 00 00 00 00 00 00 00 00 00 00 00 00 	
100	17:26:26.693	0.00000160	WitMotion.exe	IOCTL_SERIAL_WAIT_ON_MASK           	COM6	SUCCESS		
101	17:26:26.693	0.00845340	WitMotion.exe	IOCTL_SERIAL_WAIT_ON_MASK           	COM6	SUCCESS		
102	17:26:26.693	0.00000130	WitMotion.exe	IRP_MJ_READ                         	COM6	SUCCESS	Length: 19, Data: 00 00 00 08 29 00 00 00 00 00 00 00 00 00 00 00 00 59 35 	
103	17:26:26.699	0.00010090	WitMotion.exe	IRP_MJ_WRITE                        	COM6	SUCCESS	Length: 8, Data: 50 03 00 30 00 17 08 4A 	
104	17:26:26.702	0.00000150	WitMotion.exe	IOCTL_SERIAL_WAIT_ON_MASK           	COM6	SUCCESS		
105	17:26:26.702	0.00207950	WitMotion.exe	IOCTL_SERIAL_WAIT_ON_MASK           	COM6	SUCCESS		
106	17:26:26.702	0.00000160	WitMotion.exe	IRP_MJ_READ                         	COM6	SUCCESS	Length: 32, Data: 50 03 2E 0A 18 0E 09 2B 15 00 77 F9 1B 02 90 03 1D 00 00 00 00 00 00 00 00 00 00 00 00 00 00 00 	
107	17:26:26.704	0.00000210	WitMotion.exe	IOCTL_SERIAL_WAIT_ON_MASK           	COM6	SUCCESS		
108	17:26:26.704	0.00849700	WitMotion.exe	IOCTL_SERIAL_WAIT_ON_MASK           	COM6	SUCCESS		
109	17:26:26.704	0.00000170	WitMotion.exe	IRP_MJ_READ                         	COM6	SUCCESS	Length: 19, Data: 00 00 00 08 29 00 00 00 00 00 00 00 00 00 00 00 00 F0 DC 	
110	17:26:26.710	0.00010260	WitMotion.exe	IRP_MJ_WRITE                        	COM6	SUCCESS	Length: 8, Data: 50 03 00 30 00 17 08 4A 	
111	17:26:26.712	0.00000550	WitMotion.exe	IOCTL_SERIAL_WAIT_ON_MASK           	COM6	SUCCESS		
112	17:26:26.712	0.00200770	WitMotion.exe	IOCTL_SERIAL_WAIT_ON_MASK           	COM6	SUCCESS		
114	17:26:26.714	0.00000560	WitMotion.exe	IOCTL_SERIAL_WAIT_ON_MASK           	COM6	SUCCESS		
115	17:26:26.714	0.00706870	WitMotion.exe	IOCTL_SERIAL_WAIT_ON_MASK           	COM6	SUCCESS		
116	17:26:26.714	0.00000160	WitMotion.exe	IRP_MJ_READ                         	COM6	SUCCESS	Length: 19, Data: 00 00 00 08 29 00 00 00 00 00 00 00 00 00 00 00 00 1E 51 	
117	17:26:26.720	0.00010470	WitMotion.exe	IRP_MJ_WRITE                        	COM6	SUCCESS	Length: 8, Data: 50 03 00 30 00 17 08 4A 	
118	17:26:26.722	0.00000520	WitMotion.exe	IOCTL_SERIAL_WAIT_ON_MASK           	COM6	SUCCESS		
119	17:26:26.722	0.00212950	WitMotion.exe	IOCTL_SERIAL_WAIT_ON_MASK           	COM6	SUCCESS		
120	17:26:26.722	0.00000190	WitMotion.exe	IRP_MJ_READ                         	COM6	SUCCESS	Length: 32, Data: 50 03 2E 0A 18 0E 09 2B 15 00 8B F9 1D 02 8D 03 1C 00 00 00 00 00 00 00 00 00 00 00 00 00 00 00 	
121	17:26:26.724	0.00000500	WitMotion.exe	IOCTL_SERIAL_WAIT_ON_MASK           	COM6	SUCCESS		
122	17:26:26.724	0.00741710	WitMotion.exe	IOCTL_SERIAL_WAIT_ON_MASK           	COM6	SUCCESS		
123	17:26:26.724	0.00000200	WitMotion.exe	IRP_MJ_READ                         	COM6	SUCCESS	Length: 19, Data: 00 00 00 08 29 00 00 00 00 00 00 00 00 00 00 00 00 9C E8 	
124	17:26:26.729	0.00009790	WitMotion.exe	IRP_MJ_WRITE                        	COM6	SUCCESS	Length: 8, Data: 50 03 00 30 00 17 08 4A 	
125	17:26:26.731	0.00000210	WitMotion.exe	IOCTL_SERIAL_WAIT_ON_MASK           	COM6	SUCCESS		
126	17:26:26.731	0.00202460	WitMotion.exe	IOCTL_SERIAL_WAIT_ON_MASK           	COM6	SUCCESS		
127	17:26:26.732	0.00000180	WitMotion.exe	IRP_MJ_READ                         	COM6	SUCCESS	Length: 32, Data: 50 03 2E 0A 18 0E 09 2B 15 00 95 F9 1D 02 8F 03 1B 00 00 00 00 00 00 00 00 00 00 00 00 00 00 00 	
128	17:26:26.734	0.00000170	WitMotion.exe	IOCTL_SERIAL_WAIT_ON_MASK           	COM6	SUCCESS		
129	17:26:26.734	0.00809510	WitMotion.exe	IOCTL_SERIAL_WAIT_ON_MASK           	COM6	SUCCESS		
130	17:26:26.734	0.00000140	WitMotion.exe	IRP_MJ_READ                         	COM6	SUCCESS	Length: 19, Data: 00 00 00 08 36 00 00 00 00 00 00 00 00 00 00 00 00 09 FE 	
131	17:26:26.739	0.00009800	WitMotion.exe	IRP_MJ_WRITE                        	COM6	SUCCESS	Length: 8, Data: 50 03 00 30 00 17 08 4A 	
132	17:26:26.741	0.00000580	WitMotion.exe	IOCTL_SERIAL_WAIT_ON_MASK           	COM6	SUCCESS		
133	17:26:26.741	0.00204140	WitMotion.exe	IOCTL_SERIAL_WAIT_ON_MASK           	COM6	SUCCESS		
134	17:26:26.741	0.00000170	WitMotion.exe	IRP_MJ_READ                         	COM6	SUCCESS	Length: 32, Data: 50 03 2E 0A 18 0E 09 2B 15 00 9F F9 1A 02 89 03 1E 00 00 00 00 00 00 00 00 00 00 00 00 00 00 00 	
135	17:26:26.744	0.00000640	WitMotion.exe	IOCTL_SERIAL_WAIT_ON_MASK           	COM6	SUCCESS		
136	17:26:26.744	0.00823630	WitMotion.exe	IOCTL_SERIAL_WAIT_ON_MASK           	COM6	SUCCESS		
137	17:26:26.744	0.00000170	WitMotion.exe	IRP_MJ_READ                         	COM6	SUCCESS	Length: 19, Data: 00 00 00 08 29 00 00 00 00 00 00 00 00 00 00 00 00 1F 28 	
138	17:26:26.750	0.00009060	WitMotion.exe	IRP_MJ_WRITE                        	COM6	SUCCESS	Length: 8, Data: 50 03 00 30 00 17 08 4A 	
139	17:26:26.752	0.00000200	WitMotion.exe	IOCTL_SERIAL_WAIT_ON_MASK           	COM6	SUCCESS		
140	17:26:26.752	0.00190860	WitMotion.exe	IOCTL_SERIAL_WAIT_ON_MASK           	COM6	SUCCESS		
141	17:26:26.752	0.00000200	WitMotion.exe	IRP_MJ_READ                         	COM6	SUCCESS	Length: 32, Data: 50 03 2E 0A 18 0E 09 2B 15 00 A9 F9 18 02 91 03 1C 00 00 00 00 00 00 00 00 00 00 00 00 00 00 00 	
142	17:26:26.754	0.00000140	WitMotion.exe	IOCTL_SERIAL_WAIT_ON_MASK           	COM6	SUCCESS		
143	17:26:26.754	0.00697530	WitMotion.exe	IOCTL_SERIAL_WAIT_ON_MASK           	COM6	SUCCESS		
144	17:26:26.754	0.00000150	WitMotion.exe	IRP_MJ_READ                         	COM6	SUCCESS	Length: 19, Data: 00 00 00 08 29 00 00 00 00 00 00 00 00 00 00 00 00 DB A2 	
145	17:26:26.759	0.00009150	WitMotion.exe	IRP_MJ_WRITE                        	COM6	SUCCESS	Length: 8, Data: 50 03 00 30 00 17 08 4A 	
146	17:26:26.761	0.00000200	WitMotion.exe	IOCTL_SERIAL_WAIT_ON_MASK           	COM6	SUCCESS		
147	17:26:26.761	0.00198980	WitMotion.exe	IOCTL_SERIAL_WAIT_ON_MASK           	COM6	SUCCESS		
148	17:26:26.761	0.00000170	WitMotion.exe	IRP_MJ_READ                         	COM6	SUCCESS	Length: 32, Data: 50 03 2E 0A 18 0E 09 2B 15 00 B3 F9 20 02 8A 03 1A 00 00 00 00 00 00 00 00 00 00 00 00 00 00 00 	
150	17:26:26.763	0.00647140	WitMotion.exe	IOCTL_SERIAL_WAIT_ON_MASK           	COM6	SUCCESS		
151	17:26:26.763	0.00000160	WitMotion.exe	IRP_MJ_READ                         	COM6	SUCCESS	Length: 19, Data: 00 00 00 08 43 00 00 00 00 00 00 00 00 00 00 00 00 A9 70 	
152	17:26:26.768	0.00009090	WitMotion.exe	IRP_MJ_WRITE                        	COM6	SUCCESS	Length: 8, Data: 50 03 00 30 00 17 08 4A 	
153	17:26:26.769	0.00000140	WitMotion.exe	IOCTL_SERIAL_WAIT_ON_MASK           	COM6	SUCCESS		
154	17:26:26.769	0.00199840	WitMotion.exe	IOCTL_SERIAL_WAIT_ON_MASK           	COM6	SUCCESS		
155	17:26:26.769	0.00000170	WitMotion.exe	IRP_MJ_READ                         	COM6	SUCCESS	Length: 32, Data: 50 03 2E 0A 18 0E 09 2B 15 00 BD F9 1D 02 95 03 21 00 00 00 00 00 00 00 00 00 00 00 00 00 00 00 	
156	17:26:26.771	0.00000130	WitMotion.exe	IOCTL_SERIAL_WAIT_ON_MASK           	COM6	SUCCESS		
158	17:26:26.771	0.00000650	WitMotion.exe	IRP_MJ_READ                         	COM6	SUCCESS	Length: 19, Data: 00 00 00 08 29 00 00 00 00 00 00 00 00 00 00 00 00 47 0B 	
159	17:26:26.777	0.00008600	WitMotion.exe	IRP_MJ_WRITE                        	COM6	SUCCESS	Length: 8, Data: 50 03 00 30 00 17 08 4A 	
160	17:26:26.779	0.00000450	WitMotion.exe	IOCTL_SERIAL_WAIT_ON_MASK           	COM6	SUCCESS		
161	17:26:26.779	0.00192760	WitMotion.exe	IOCTL_SERIAL_WAIT_ON_MASK           	COM6	SUCCESS		
162	17:26:26.779	0.00000180	WitMotion.exe	IRP_MJ_READ                         	COM6	SUCCESS	Length: 32, Data: 50 03 2E 0A 18 0E 09 2B 15 00 C7 F9 1E 02 86 03 1D 00 00 00 00 00 00 00 00 00 00 00 00 00 00 00 	
163	17:26:26.780	0.00000150	WitMotion.exe	IOCTL_SERIAL_WAIT_ON_MASK           	COM6	SUCCESS		
164	17:26:26.780	0.00795190	WitMotion.exe	IOCTL_SERIAL_WAIT_ON_MASK           	COM6	SUCCESS		
165	17:26:26.780	0.00000170	WitMotion.exe	IRP_MJ_READ                         	COM6	SUCCESS	Length: 19, Data: 00 00 00 08 29 00 00 00 00 00 00 00 00 00 00 00 00 C7 8B 	
166	17:26:26.786	0.00011330	WitMotion.exe	IRP_MJ_WRITE                        	COM6	SUCCESS	Length: 8, Data: 50 03 00 30 00 17 08 4A 	
167	17:26:26.788	0.00000160	WitMotion.exe	IOCTL_SERIAL_WAIT_ON_MASK           	COM6	SUCCESS		
168	17:26:26.788	0.00204000	WitMotion.exe	IOCTL_SERIAL_WAIT_ON_MASK           	COM6	SUCCESS		
169	17:26:26.788	0.00000180	WitMotion.exe	IRP_MJ_READ                         	COM6	SUCCESS	Length: 32, Data: 50 03 2E 0A 18 0E 09 2B 15 00 D1 F9 18 02 8C 03 1F 00 00 00 00 00 00 00 00 00 00 00 00 00 00 00 	
170	17:26:26.791	0.00000440	WitMotion.exe	IOCTL_SERIAL_WAIT_ON_MASK           	COM6	SUCCESS		
171	17:26:26.791	0.00740930	WitMotion.exe	IOCTL_SERIAL_WAIT_ON_MASK           	COM6	SUCCESS		
172	17:26:26.791	0.00000190	WitMotion.exe	IRP_MJ_READ                         	COM6	SUCCESS	Length: 19, Data: 00 00 00 08 23 00 00 00 00 00 00 00 00 00 00 00 00 D4 08 	
173	17:26:26.796	0.00009770	WitMotion.exe	IRP_MJ_WRITE                        	COM6	SUCCESS	Length: 8, Data: 50 03 00 30 00 17 08 4A 	
174	17:26:26.798	0.00000170	WitMotion.exe	IOCTL_SERIAL_WAIT_ON_MASK           	COM6	SUCCESS		
178	17:26:26.800	0.00721730	WitMotion.exe	IOCTL_SERIAL_WAIT_ON_MASK           	COM6	SUCCESS		
179	17:26:26.800	0.00000900	WitMotion.exe	IRP_MJ_READ                         	COM6	SUCCESS	Length: 19, Data: 00 00 00 08 36 00 00 00 00 00 00 00 00 00 00 00 00 D0 87 	
180	17:26:26.806	0.00010420	WitMotion.exe	IRP_MJ_WRITE                        	COM6	SUCCESS	Length: 8, Data: 50 03 00 30 00 17 08 4A 	
181	17:26:26.808	0.00000520	WitMotion.exe	IOCTL_SERIAL_WAIT_ON_MASK           	COM6	SUCCESS		
182	17:26:26.808	0.00209830	WitMotion.exe	IOCTL_SERIAL_WAIT_ON_MASK           	COM6	SUCCESS		
183	17:26:26.808	0.00000200	WitMotion.exe	IRP_MJ_READ                         	COM6	SUCCESS	Length: 32, Data: 50 03 2E 0A 18 0E 09 2B 15 00 E0 F9 1D 02 93 03 21 00 00 00 00 00 00 00 00 00 00 00 00 00 00 00 	
184	17:26:26.810	0.00000170	WitMotion.exe	IOCTL_SERIAL_WAIT_ON_MASK           	COM6	SUCCESS		
187	17:26:26.816	0.00009820	WitMotion.exe	IRP_MJ_WRITE                        	COM6	SUCCESS	Length: 8, Data: 50 03 00 30 00 17 08 4A 	
188	17:26:26.818	0.00000520	WitMotion.exe	IOCTL_SERIAL_WAIT_ON_MASK           	COM6	SUCCESS		
189	17:26:26.818	0.00202890	WitMotion.exe	IOCTL_SERIAL_WAIT_ON_MASK           	COM6	SUCCESS		
190	17:26:26.818	0.00000170	WitMotion.exe	IRP_MJ_READ                         	COM6	SUCCESS	Length: 32, Data: 50 03 2E 0A 18 0E 09 2B 15 00 EF F9 16 02 87 03 21 00 00 00 00 00 00 00 00 00 00 00 00 00 00 00 	
193	17:26:26.820	0.00000490	WitMotion.exe	IRP_MJ_READ                         	COM6	SUCCESS	Length: 19, Data: 00 00 00 08 30 00 00 00 00 00 00 00 00 00 00 00 00 C8 7A 	
194	17:26:26.825	0.00010570	WitMotion.exe	IRP_MJ_WRITE                        	COM6	SUCCESS	Length: 8, Data: 50 03 00 30 00 17 08 4A 	
195	17:26:26.827	0.00000540	WitMotion.exe	IOCTL_SERIAL_WAIT_ON_MASK           	COM6	SUCCESS		
196	17:26:26.827	0.00198840	WitMotion.exe	IOCTL_SERIAL_WAIT_ON_MASK           	COM6	SUCCESS		
197	17:26:26.827	0.00000210	WitMotion.exe	IRP_MJ_READ                         	COM6	SUCCESS	Length: 32, Data: 50 03 2E 0A 18 0E 09 2B 15 00 F4 F9 1B 02 82 03 1E 00 00 00 00 00 00 00 00 00 00 00 00 00 00 00 	
198	17:26:26.830	0.00000110	WitMotion.exe	IOCTL_SERIAL_WAIT_ON_MASK           	COM6	SUCCESS		
199	17:26:26.830	0.00788150	WitMotion.exe	IOCTL_SERIAL_WAIT_ON_MASK           	COM6	SUCCESS		
200	17:26:26.830	0.00000180	WitMotion.exe	IRP_MJ_READ                         	COM6	SUCCESS	Length: 19, Data: 00 00 00 08 29 00 00 00 00 00 00 00 00 00 00 00 00 1C AE 	
201	17:26:26.836	0.00010300	WitMotion.exe	IRP_MJ_WRITE                        	COM6	SUCCESS	Length: 8, Data: 50 03 00 30 00 17 08 4A 	
202	17:26:26.837	0.00000140	WitMotion.exe	IOCTL_SERIAL_WAIT_ON_MASK           	COM6	SUCCESS		
203	17:26:26.837	0.00196080	WitMotion.exe	IOCTL_SERIAL_WAIT_ON_MASK           	COM6	SUCCESS		
204	17:26:26.837	0.00000190	WitMotion.exe	IRP_MJ_READ                         	COM6	SUCCESS	Length: 32, Data: 50 03 2E 0A 18 0E 09 2B 15 00 FE F9 1F 02 8C 03 18 00 00 00 00 00 00 00 00 00 00 00 00 00 00 00 	
205	17:26:26.839	0.00000130	WitMotion.exe	IOCTL_SERIAL_WAIT_ON_MASK           	COM6	SUCCESS		
206	17:26:26.839	0.00629980	WitMotion.exe	IOCTL_SERIAL_WAIT_ON_MASK           	COM6	SUCCESS		
207	17:26:26.839	0.00000140	WitMotion.exe	IRP_MJ_READ                         	COM6	SUCCESS	Length: 19, Data: 00 00 00 08 29 00 00 00 00 00 00 00 00 00 00 00 00 DA D6 	
208	17:26:26.843	0.00010350	WitMotion.exe	IRP_MJ_WRITE                        	COM6	SUCCESS	Length: 8, Data: 50 03 00 30 00 17 08 4A 	
210	17:26:26.845	0.00200080	WitMotion.exe	IOCTL_SERIAL_WAIT_ON_MASK           	COM6	SUCCESS		
211	17:26:26.845	0.00000180	WitMotion.exe	IRP_MJ_READ                         	COM6	SUCCESS	Length: 32, Data: 50 03 2E 0A 18 0E 09 2B 15 01 08 F9 1A 02 90 03 22 00 00 00 00 00 00 00 00 00 00 00 00 00 00 00 	
212	17:26:26.848	0.00000170	WitMotion.exe	IOCTL_SERIAL_WAIT_ON_MASK           	COM6	SUCCESS		
213	17:26:26.848	0.00818790	WitMotion.exe	IOCTL_SERIAL_WAIT_ON_MASK           	COM6	SUCCESS		
214	17:26:26.848	0.00000140	WitMotion.exe	IRP_MJ_READ                         	COM6	SUCCESS	Length: 19, Data: 00 00 00 08 23 00 00 00 00 00 00 00 00 00 00 00 00 C2 AE 	
215	17:26:26.855	0.00009530	WitMotion.exe	IRP_MJ_WRITE                        	COM6	SUCCESS	Length: 8, Data: 50 03 00 30 00 17 08 4A 	
216	17:26:26.856	0.00000180	WitMotion.exe	IOCTL_SERIAL_WAIT_ON_MASK           	COM6	SUCCESS		
217	17:26:26.856	0.00216510	WitMotion.exe	IOCTL_SERIAL_WAIT_ON_MASK           	COM6	SUCCESS		
218	17:26:26.856	0.00000150	WitMotion.exe	IRP_MJ_READ                         	COM6	SUCCESS	Length: 32, Data: 50 03 2E 0A 18 0E 09 2B 15 01 12 F9 12 02 85 03 1B 00 00 00 00 00 00 00 00 00 00 00 00 00 00 00 	
220	17:26:26.859	0.00824580	WitMotion.exe	IOCTL_SERIAL_WAIT_ON_MASK           	COM6	SUCCESS		
221	17:26:26.859	0.00000310	WitMotion.exe	IRP_MJ_READ                         	COM6	SUCCESS	Length: 19, Data: 00 00 00 08 43 00 00 00 00 00 00 00 00 00 00 00 00 6F BC 	
222	17:26:26.865	0.00009880	WitMotion.exe	IRP_MJ_WRITE                        	COM6	SUCCESS	Length: 8, Data: 50 03 00 30 00 17 08 4A 	
223	17:26:26.867	0.00000150	WitMotion.exe	IOCTL_SERIAL_WAIT_ON_MASK           	COM6	SUCCESS		
224	17:26:26.867	0.00205360	WitMotion.exe	IOCTL_SERIAL_WAIT_ON_MASK           	COM6	SUCCESS		
225	17:26:26.867	0.00000140	WitMotion.exe	IRP_MJ_READ                         	COM6	SUCCESS	Length: 32, Data: 50 03 2E 0A 18 0E 09 2B 15 01 1C F9 1D 02 85 03 1D 00 00 00 00 00 00 00 00 00 00 00 00 00 00 00 	
226	17:26:26.869	0.00000140	WitMotion.exe	IOCTL_SERIAL_WAIT_ON_MASK           	COM6	SUCCESS		
227	17:26:26.869	0.00728600	WitMotion.exe	IOCTL_SERIAL_WAIT_ON_MASK           	COM6	SUCCESS		
228	17:26:26.869	0.00000140	WitMotion.exe	IRP_MJ_READ                         	COM6	SUCCESS	Length: 19, Data: 00 00 00 08 29 00 00 00 00 00 00 00 00 00 00 00 00 59 AF 	
229	17:26:26.875	0.00009630	WitMotion.exe	IRP_MJ_WRITE                        	COM6	SUCCESS	Length: 8, Data: 50 03 00 30 00 17 08 4A 	
230	17:26:26.876	0.00000130	WitMotion.exe	IOCTL_SERIAL_WAIT_ON_MASK           	COM6	SUCCESS		
231	17:26:26.876	0.00203410	WitMotion.exe	IOCTL_SERIAL_WAIT_ON_MASK           	COM6	SUCCESS		
232	17:26:26.876	0.00000190	WitMotion.exe	IRP_MJ_READ                         	COM6	SUCCESS	Length: 32, Data: 50 03 2E 0A 18 0E 09 2B 15 01 26 F9 1C 02 8B 03 1E 00 00 00 00 00 00 00 00 00 00 00 00 00 00 00 	
233	17:26:26.878	0.00000140	WitMotion.exe	IOCTL_SERIAL_WAIT_ON_MASK           	COM6	SUCCESS		
235	17:26:26.878	0.00000400	WitMotion.exe	IRP_MJ_READ                         	COM6	SUCCESS	Length: 19, Data: 00 00 00 08 30 00 00 00 00 00 00 00 00 00 00 00 00 A1 DE 	
236	17:26:26.883	0.00008980	WitMotion.exe	IRP_MJ_WRITE                        	COM6	SUCCESS	Length: 8, Data: 50 03 00 30 00 17 08 4A 	
237	17:26:26.885	0.00000570	WitMotion.exe	IOCTL_SERIAL_WAIT_ON_MASK           	COM6	SUCCESS		
238	17:26:26.885	0.00205900	WitMotion.exe	IOCTL_SERIAL_WAIT_ON_MASK           	COM6	SUCCESS		
239	17:26:26.885	0.00000160	WitMotion.exe	IRP_MJ_READ                         	COM6	SUCCESS	Length: 32, Data: 50 03 2E 0A 18 0E 09 2B 15 01 30 F9 15 02 92 03 20 00 00 00 00 00 00 00 00 00 00 00 00 00 00 00 	
240	17:26:26.887	0.00000380	WitMotion.exe	IOCTL_SERIAL_WAIT_ON_MASK           	COM6	SUCCESS		
241	17:26:26.887	0.00850940	WitMotion.exe	IOCTL_SERIAL_WAIT_ON_MASK           	COM6	SUCCESS		
242	17:26:26.887	0.00000160	WitMotion.exe	IRP_MJ_READ                         	COM6	SUCCESS	Length: 19, Data: 00 00 00 08 30 00 00 00 00 00 00 00 00 00 00 00 00 22 6C 	
243	17:26:26.894	0.00009400	WitMotion.exe	IRP_MJ_WRITE                        	COM6	SUCCESS	Length: 8, Data: 50 03 00 30 00 17 08 4A 	
244	17:26:26.896	0.00000150	WitMotion.exe	IOCTL_SERIAL_WAIT_ON_MASK           	COM6	SUCCESS		
245	17:26:26.896	0.00201860	WitMotion.exe	IOCTL_SERIAL_WAIT_ON_MASK           	COM6	SUCCESS		
246	17:26:26.896	0.00000480	WitMotion.exe	IRP_MJ_READ                         	COM6	SUCCESS	Length: 32, Data: 50 03 2E 0A 18 0E 09 2B 15 01 3A F9 1F 02 8E 03 21 00 00 00 00 00 00 00 00 00 00 00 00 00 00 00 	
247	17:26:26.898	0.00000130	WitMotion.exe	IOCTL_SERIAL_WAIT_ON_MASK           	COM6	SUCCESS		
248	17:26:26.898	0.00860940	WitMotion.exe	IOCTL_SERIAL_WAIT_ON_MASK           	COM6	SUCCESS		
249	17:26:26.898	0.00000160	WitMotion.exe	IRP_MJ_READ                         	COM6	SUCCESS	Length: 19, Data: 00 00 00 08 29 00 00 00 00 00 00 00 00 00 00 00 00 EA EE 	
250	17:26:26.905	0.00010290	WitMotion.exe	IRP_MJ_WRITE                        	COM6	SUCCESS	Length: 8, Data: 50 03 00 30 00 17 08 4A 	
251	17:26:26.907	0.00000480	WitMotion.exe	IOCTL_SERIAL_WAIT_ON_MASK           	COM6	SUCCESS		
252	17:26:26.907	0.00207720	WitMotion.exe	IOCTL_SERIAL_WAIT_ON_MASK           	COM6	SUCCESS		
253	17:26:26.907	0.00000170	WitMotion.exe	IRP_MJ_READ                         	COM6	SUCCESS	Length: 32, Data: 50 03 2E 0A 18 0E 09 2B 15 01 44 F9 1A 02 8E 03 21 00 00 00 00 00 00 00 00 00 00 00 00 00 00 00 	
254	17:26:26.909	0.00000560	WitMotion.exe	IOCTL_SERIAL_WAIT_ON_MASK           	COM6	SUCCESS		
255	17:26:26.909	0.00953120	WitMotion.exe	IOCTL_SERIAL_WAIT_ON_MASK           	COM6	SUCCESS		
256	17:26:26.909	0.00000160	WitMotion.exe	IRP_MJ_READ                         	COM6	SUCCESS	Length: 19, Data: 00 00 00 08 29 00 00 00 00 00 00 00 00 00 00 00 00 37 35 	
257	17:26:26.916	0.00009670	WitMotion.exe	IRP_MJ_WRITE                        	COM6	SUCCESS	Length: 8, Data: 50 03 00 30 00 17 08 4A 	
258	17:26:26.918	0.00000180	WitMotion.exe	IOCTL_SERIAL_WAIT_ON_MASK           	COM6	SUCCESS		
259	17:26:26.918	0.00198820	WitMotion.exe	IOCTL_SERIAL_WAIT_ON_MASK           	COM6	SUCCESS		
260	17:26:26.918	0.00000160	WitMotion.exe	IRP_MJ_READ                         	COM6	SUCCESS	Length: 32, Data: 50 03 2E 0A 18 0E 09 2B 15 01 53 F9 1E 02 8B 03 19 00 00 00 00 00 00 00 00 00 00 00 00 00 00 00 	
262	17:26:26.920	0.00956580	WitMotion.exe	IOCTL_SERIAL_WAIT_ON_MASK           	COM6	SUCCESS		
263	17:26:26.920	0.00000320	WitMotion.exe	IRP_MJ_READ                         	COM6	SUCCESS	Length: 19, Data: 00 00 00 08 29 00 00 00 00 00 00 00 00 00 00 00 00 5C 79 	
264	17:26:26.928	0.00011910	WitMotion.exe	IRP_MJ_WRITE                        	COM6	SUCCESS	Length: 8, Data: 50 03 00 30 00 17 08 4A 	
265	17:26:26.930	0.00000200	WitMotion.exe	IOCTL_SERIAL_WAIT_ON_MASK           	COM6	SUCCESS		
266	17:26:26.930	0.00000860	WitMotion.exe	IRP_MJ_READ                         	COM6	SUCCESS	Length: 32, Data: 50 03 2E 0A 18 0E 09 2B 15 01 5D F9 19 02 95 03 1F 00 00 00 00 00 00 00 00 00 00 00 00 00 00 00 	
267	17:26:26.930	0.00202140	WitMotion.exe	IOCTL_SERIAL_WAIT_ON_MASK           	COM6	SUCCESS		
268	17:26:26.932	0.00000190	WitMotion.exe	IOCTL_SERIAL_WAIT_ON_MASK           	COM6	SUCCESS		
269	17:26:26.932	0.00677920	WitMotion.exe	IOCTL_SERIAL_WAIT_ON_MASK           	COM6	SUCCESS		
270	17:26:26.932	0.00000140	WitMotion.exe	IRP_MJ_READ                         	COM6	SUCCESS	Length: 19, Data: 00 00 00 08 29 00 00 00 00 00 00 00 00 00 00 00 00 4A 03 	
271	17:26:26.938	0.00012810	WitMotion.exe	IRP_MJ_WRITE                        	COM6	SUCCESS	Length: 8, Data: 50 03 00 30 00 17 08 4A 	
272	17:26:26.940	0.00000400	WitMotion.exe	IOCTL_SERIAL_WAIT_ON_MASK           	COM6	SUCCESS		
273	17:26:26.940	0.00195590	WitMotion.exe	IOCTL_SERIAL_WAIT_ON_MASK           	COM6	SUCCESS		
274	17:26:26.940	0.00000190	WitMotion.exe	IRP_MJ_READ                         	COM6	SUCCESS	Length: 32, Data: 50 03 2E 0A 18 0E 09 2B 15 01 67 F9 1B 02 82 03 1E 00 00 00 00 00 00 00 00 00 00 00 00 00 00 00 	
275	17:26:26.941	0.00000130	WitMotion.exe	IOCTL_SERIAL_WAIT_ON_MASK           	COM6	SUCCESS		
276	17:26:26.941	0.00712150	WitMotion.exe	IOCTL_SERIAL_WAIT_ON_MASK           	COM6	SUCCESS		
277	17:26:26.941	0.00000470	WitMotion.exe	IRP_MJ_READ                         	COM6	SUCCESS	Length: 19, Data: 00 00 00 08 16 00 00 00 00 00 00 00 00 00 00 00 00 AE 27 	
278	17:26:26.946	0.00008280	WitMotion.exe	IRP_MJ_WRITE                        	COM6	SUCCESS	Length: 8, Data: 50 03 00 30 00 17 08 4A 	
279	17:26:26.949	0.00000530	WitMotion.exe	IOCTL_SERIAL_WAIT_ON_MASK           	COM6	SUCCESS		
280	17:26:26.949	0.00196490	WitMotion.exe	IOCTL_SERIAL_WAIT_ON_MASK           	COM6	SUCCESS		
281	17:26:26.949	0.00000190	WitMotion.exe	IRP_MJ_READ                         	COM6	SUCCESS	Length: 32, Data: 50 03 2E 0A 18 0E 09 2B 15 01 71 F9 1E 02 93 03 1C 00 00 00 00 00 00 00 00 00 00 00 00 00 00 00 	
282	17:26:26.950	0.00000150	WitMotion.exe	IOCTL_SERIAL_WAIT_ON_MASK           	COM6	SUCCESS		
283	17:26:26.950	0.00799740	WitMotion.exe	IOCTL_SERIAL_WAIT_ON_MASK           	COM6	SUCCESS		
284	17:26:26.950	0.00000220	WitMotion.exe	IRP_MJ_READ                         	COM6	SUCCESS	Length: 19, Data: 00 00 00 08 36 00 00 00 00 00 00 00 00 00 00 00 00 32 3D 	
285	17:26:26.956	0.00009330	WitMotion.exe	IRP_MJ_WRITE                        	COM6	SUCCESS	Length: 8, Data: 50 03 00 30 00 17 08 4A 	
287	17:26:26.959	0.00201400	WitMotion.exe	IOCTL_SERIAL_WAIT_ON_MASK           	COM6	SUCCESS		
288	17:26:26.959	0.00000180	WitMotion.exe	IRP_MJ_READ                         	COM6	SUCCESS	Length: 32, Data: 50 03 2E 0A 18 0E 09 2B 15 01 7B F9 18 02 90 03 18 00 00 00 00 00 00 00 00 00 00 00 00 00 00 00 	
289	17:26:26.960	0.00000150	WitMotion.exe	IOCTL_SERIAL_WAIT_ON_MASK           	COM6	SUCCESS		
290	17:26:26.960	0.00647930	WitMotion.exe	IOCTL_SERIAL_WAIT_ON_MASK           	COM6	SUCCESS		
291	17:26:26.960	0.00000190	WitMotion.exe	IRP_MJ_READ                         	COM6	SUCCESS	Length: 19, Data: 00 00 00 08 49 00 00 00 00 00 00 00 00 00 00 00 00 4D 1B 	
292	17:26:26.964	0.00013110	WitMotion.exe	IRP_MJ_WRITE                        	COM6	SUCCESS	Length: 8, Data: 50 03 00 30 00 17 08 4A 	
293	17:26:26.967	0.00000610	WitMotion.exe	IOCTL_SERIAL_WAIT_ON_MASK           	COM6	SUCCESS		
294	17:26:26.967	0.00195290	WitMotion.exe	IOCTL_SERIAL_WAIT_ON_MASK           	COM6	SUCCESS		
295	17:26:26.968	0.00000200	WitMotion.exe	IRP_MJ_READ                         	COM6	SUCCESS	Length: 32, Data: 50 03 2E 0A 18 0E 09 2B 15 01 80 F9 20 02 90 03 1F 00 00 00 00 00 00 00 00 00 00 00 00 00 00 00 	
296	17:26:26.969	0.00000130	WitMotion.exe	IOCTL_SERIAL_WAIT_ON_MASK           	COM6	SUCCESS		
297	17:26:26.970	0.00809040	WitMotion.exe	IOCTL_SERIAL_WAIT_ON_MASK           	COM6	SUCCESS		
298	17:26:26.970	0.00000210	WitMotion.exe	IRP_MJ_READ                         	COM6	SUCCESS	Length: 19, Data: 00 00 00 08 29 00 00 00 00 00 00 00 00 00 00 00 00 12 6B 	
299	17:26:26.976	0.00008830	WitMotion.exe	IRP_MJ_WRITE                        	COM6	SUCCESS	Length: 8, Data: 50 03 00 30 00 17 08 4A 	
300	17:26:26.977	0.00000150	WitMotion.exe	IOCTL_SERIAL_WAIT_ON_MASK           	COM6	SUCCESS		
301	17:26:26.977	0.00209010	WitMotion.exe	IOCTL_SERIAL_WAIT_ON_MASK           	COM6	SUCCESS		
302	17:26:26.977	0.00000120	WitMotion.exe	IRP_MJ_READ                         	COM6	SUCCESS	Length: 32, Data: 50 03 2E 0A 18 0E 09 2B 15 01 8A F9 1B 02 91 03 23 00 00 00 00 00 00 00 00 00 00 00 00 00 00 00 	
303	17:26:26.979	0.00000500	WitMotion.exe	IOCTL_SERIAL_WAIT_ON_MASK           	COM6	SUCCESS		
304	17:26:26.979	0.00647430	WitMotion.exe	IOCTL_SERIAL_WAIT_ON_MASK           	COM6	SUCCESS		
305	17:26:26.979	0.00000170	WitMotion.exe	IRP_MJ_READ                         	COM6	SUCCESS	Length: 19, Data: 00 00 00 08 36 00 00 00 00 00 00 00 00 00 00 00 00 77 77 	
306	17:26:26.985	0.00008430	WitMotion.exe	IRP_MJ_WRITE                        	COM6	SUCCESS	Length: 8, Data: 50 03 00 30 00 17 08 4A 	
307	17:26:26.986	0.00000460	WitMotion.exe	IOCTL_SERIAL_WAIT_ON_MASK           	COM6	SUCCESS		
308	17:26:26.986	0.00197050	WitMotion.exe	IOCTL_SERIAL_WAIT_ON_MASK           	COM6	SUCCESS		
309	17:26:26.986	0.00000140	WitMotion.exe	IRP_MJ_READ                         	COM6	SUCCESS	Length: 32, Data: 50 03 2E 0A 18 0E 09 2B 15 01 94 F9 16 02 93 03 23 00 00 00 00 00 00 00 00 00 00 00 00 00 00 00 	
310	17:26:26.988	0.00000510	WitMotion.exe	IOCTL_SERIAL_WAIT_ON_MASK           	COM6	SUCCESS		
311	17:26:26.988	0.00709420	WitMotion.exe	IOCTL_SERIAL_WAIT_ON_MASK           	COM6	SUCCESS		
312	17:26:26.988	0.00000180	WitMotion.exe	IRP_MJ_READ                         	COM6	SUCCESS	Length: 19, Data: 00 00 00 08 29 00 00 00 00 00 00 00 00 00 00 00 00 62 30 	
313	17:26:26.993	0.00012660	WitMotion.exe	IRP_MJ_WRITE                        	COM6	SUCCESS	Length: 8, Data: 50 03 00 30 00 17 08 4A 	
314	17:26:26.995	0.00000150	WitMotion.exe	IOCTL_SERIAL_WAIT_ON_MASK           	COM6	SUCCESS		
315	17:26:26.995	0.00206040	WitMotion.exe	IOCTL_SERIAL_WAIT_ON_MASK           	COM6	SUCCESS		
316	17:26:26.995	0.00000130	WitMotion.exe	IRP_MJ_READ                         	COM6	SUCCESS	Length: 32, Data: 50 03 2E 0A 18 0E 09 2B 15 01 9E F9 18 02 8F 03 23 00 00 00 00 00 00 00 00 00 00 00 00 00 00 00 	
317	17:26:26.997	0.00000130	WitMotion.exe	IOCTL_SERIAL_WAIT_ON_MASK           	COM6	SUCCESS		
318	17:26:26.997	0.00715710	WitMotion.exe	IOCTL_SERIAL_WAIT_ON_MASK           	COM6	SUCCESS		
319	17:26:26.997	0.00000160	WitMotion.exe	IRP_MJ_READ                         	COM6	SUCCESS	Length: 19, Data: 00 00 00 08 30 00 00 00 00 00 00 00 00 00 00 00 00 B1 B2 	
320	17:26:27.003	0.00010310	WitMotion.exe	IRP_MJ_WRITE                        	COM6	SUCCESS	Length: 8, Data: 50 03 00 30 00 17 08 4A 	
322	17:26:27.004	0.00199780	WitMotion.exe	IOCTL_SERIAL_WAIT_ON_MASK           	COM6	SUCCESS		
323	17:26:27.004	0.00000140	WitMotion.exe	IRP_MJ_READ                         	COM6	SUCCESS	Length: 32, Data: 50 03 2E 0A 18 0E 09 2B 15 01 A8 F9 1B 02 90 03 1B 00 00 00 00 00 00 00 00 00 00 00 00 00 00 00 	
324	17:26:27.007	0.00000120	WitMotion.exe	IOCTL_SERIAL_WAIT_ON_MASK           	COM6	SUCCESS		
325	17:26:27.007	0.00816210	WitMotion.exe	IOCTL_SERIAL_WAIT_ON_MASK           	COM6	SUCCESS		
326	17:26:27.007	0.00000190	WitMotion.exe	IRP_MJ_READ                         	COM6	SUCCESS	Length: 19, Data: 00 00 00 08 29 00 00 00 00 00 00 00 00 00 00 00 00 70 39 	
327	17:26:27.012	0.00009020	WitMotion.exe	IRP_MJ_WRITE                        	COM6	SUCCESS	Length: 8, Data: 50 03 00 30 00 17 08 4A 	
329	17:26:27.014	0.00203720	WitMotion.exe	IOCTL_SERIAL_WAIT_ON_MASK           	COM6	SUCCESS		
330	17:26:27.014	0.00000160	WitMotion.exe	IRP_MJ_READ                         	COM6	SUCCESS	Length: 32, Data: 50 03 2E 0A 18 0E 09 2B 15 01 B2 F9 1B 02 8F 03 18 00 00 00 00 00 00 00 00 00 00 00 00 00 00 00 	
331	17:26:27.017	0.00000120	WitMotion.exe	IOCTL_SERIAL_WAIT_ON_MASK           	COM6	SUCCESS		
332	17:26:27.017	0.00725750	WitMotion.exe	IOCTL_SERIAL_WAIT_ON_MASK           	COM6	SUCCESS		
333	17:26:27.017	0.00000170	WitMotion.exe	IRP_MJ_READ                         	COM6	SUCCESS	Length: 19, Data: 00 00 00 08 30 00 00 00 00 00 00 00 00 00 00 00 00 5A 1B 	
334	17:26:27.022	0.00008860	WitMotion.exe	IRP_MJ_WRITE                        	COM6	SUCCESS	Length: 8, Data: 50 03 00 30 00 17 08 4A 	
335	17:26:27.025	0.00000620	WitMotion.exe	IOCTL_SERIAL_WAIT_ON_MASK           	COM6	SUCCESS		
336	17:26:27.025	0.00206160	WitMotion.exe	IOCTL_SERIAL_WAIT_ON_MASK           	COM6	SUCCESS		
337	17:26:27.025	0.00000170	WitMotion.exe	IRP_MJ_READ                         	COM6	SUCCESS	Length: 32, Data: 50 03 2E 0A 18 0E 09 2B 15 01 BC F9 1B 02 8A 03 19 00 00 00 00 00 00 00 00 00 00 00 00 00 00 00 	
339	17:26:27.027	0.00987200	WitMotion.exe	IOCTL_SERIAL_WAIT_ON_MASK           	COM6	SUCCESS		
340	17:26:27.027	0.00000200	WitMotion.exe	IRP_MJ_READ                         	COM6	SUCCESS	Length: 19, Data: 00 00 00 08 30 00 00 00 00 00 00 00 00 00 00 00 00 D7 93 	
341	17:26:27.034	0.00010760	WitMotion.exe	IRP_MJ_WRITE                        	COM6	SUCCESS	Length: 8, Data: 50 03 00 30 00 17 08 4A 	
342	17:26:27.037	0.00000180	WitMotion.exe	IOCTL_SERIAL_WAIT_ON_MASK           	COM6	SUCCESS		
343	17:26:27.037	0.00199740	WitMotion.exe	IOCTL_SERIAL_WAIT_ON_MASK           	COM6	SUCCESS		
344	17:26:27.037	0.00000180	WitMotion.exe	IRP_MJ_READ                         	COM6	SUCCESS	Length: 32, Data: 50 03 2E 0A 18 0E 09 2B 15 01 C6 F9 20 02 85 03 1D 00 00 00 00 00 00 00 00 00 00 00 00 00 00 00 	
346	17:26:27.038	0.00760410	WitMotion.exe	IOCTL_SERIAL_WAIT_ON_MASK           	COM6	SUCCESS		
347	17:26:27.038	0.00000210	WitMotion.exe	IRP_MJ_READ                         	COM6	SUCCESS	Length: 19, Data: 00 00 00 08 1D 00 00 00 00 00 00 00 00 00 00 00 00 9C F7 	
348	17:26:27.044	0.00009130	WitMotion.exe	IRP_MJ_WRITE                        	COM6	SUCCESS	Length: 8, Data: 50 03 00 30 00 17 08 4A 	
349	17:26:27.046	0.00000580	WitMotion.exe	IOCTL_SERIAL_WAIT_ON_MASK           	COM6	SUCCESS		
351	17:26:27.046	0.00000590	WitMotion.exe	IRP_MJ_READ                         	COM6	SUCCESS	Length: 32, Data: 50 03 2E 0A 18 0E 09 2B 15 01 D0 F9 17 02 86 03 1C 00 00 00 00 00 00 00 00 00 00 00 00 00 00 00 	
352	17:26:27.048	0.00000620	WitMotion.exe	IOCTL_SERIAL_WAIT_ON_MASK           	COM6	SUCCESS		
353	17:26:27.048	0.00721300	WitMotion.exe	IOCTL_SERIAL_WAIT_ON_MASK           	COM6	SUCCESS		
354	17:26:27.048	0.00000160	WitMotion.exe	IRP_MJ_READ                         	COM6	SUCCESS	Length: 19, Data: 00 00 00 08 29 00 00 00 00 00 00 00 00 00 00 00 00 51 99 	
355	17:26:27.054	0.00008850	WitMotion.exe	IRP_MJ_WRITE                        	COM6	SUCCESS	Length: 8, Data: 50 03 00 30 00 17 08 4A 	
356	17:26:27.056	0.00000130	WitMotion.exe	IOCTL_SERIAL_WAIT_ON_MASK           	COM6	SUCCESS		
357	17:26:27.056	0.00210480	WitMotion.exe	IOCTL_SERIAL_WAIT_ON_MASK           	COM6	SUCCESS		
358	17:26:27.056	0.00000210	WitMotion.exe	IRP_MJ_READ                         	COM6	SUCCESS	Length: 32, Data: 50 03 2E 0A 18 0E 09 2B 15 01 DA F9 1B 02 8E 03 23 00 00 00 00 00 00 00 00 00 00 00 00 00 00 00 	
359	17:26:27.058	0.00000180	WitMotion.exe	IOCTL_SERIAL_WAIT_ON_MASK           	COM6	SUCCESS		
360	17:26:27.058	0.00734050	WitMotion.exe	IOCTL_SERIAL_WAIT_ON_MASK           	COM6	SUCCESS		
361	17:26:27.058	0.00000170	WitMotion.exe	IRP_MJ_READ                         	COM6	SUCCESS	Length: 19, Data: 00 00 00 08 36 00 00 00 00 00 00 00 00 00 00 00 00 F0 B6 	
362	17:26:27.063	0.00008530	WitMotion.exe	IRP_MJ_WRITE                        	COM6	SUCCESS	Length: 8, Data: 50 03 00 30 00 17 08 4A 	
363	17:26:27.065	0.00000500	WitMotion.exe	IOCTL_SERIAL_WAIT_ON_MASK           	COM6	SUCCESS		
364	17:26:27.066	0.00198440	WitMotion.exe	IOCTL_SERIAL_WAIT_ON_MASK           	COM6	SUCCESS		
365	17:26:27.066	0.00000140	WitMotion.exe	IRP_MJ_READ                         	COM6	SUCCESS	Length: 32, Data: 50 03 2E 0A 18 0E 09 2B 15 01 E4 F9 1A 02 90 03 19 00 00 00 00 00 00 00 00 00 00 00 00 00 00 00 	
366	17:26:27.067	0.00000530	WitMotion.exe	IOCTL_SERIAL_WAIT_ON_MASK           	COM6	SUCCESS		
367	17:26:27.067	0.00621880	WitMotion.exe	IOCTL_SERIAL_WAIT_ON_MASK           	COM6	SUCCESS		
368	17:26:27.067	0.00000150	WitMotion.exe	IRP_MJ_READ                         	COM6	SUCCESS	Length: 19, Data: 00 00 00 08 1D 00 00 00 00 00 00 00 00 00 00 00 00 F5 8F 	
369	17:26:27.071	0.00007640	WitMotion.exe	IRP_MJ_WRITE                        	COM6	SUCCESS	Length: 8, Data: 50 03 00 30 00 17 08 4A 	
370	17:26:27.073	0.00000490	WitMotion.exe	IOCTL_SERIAL_WAIT_ON_MASK           	COM6	SUCCESS		
371	17:26:27.073	0.00207360	WitMotion.exe	IOCTL_SERIAL_WAIT_ON_MASK           	COM6	SUCCESS		
372	17:26:27.073	0.00000160	WitMotion.exe	IRP_MJ_READ                         	COM6	SUCCESS	Length: 32, Data: 50 03 2E 0A 18 0E 09 2B 15 01 EE F9 1E 02 8C 03 1B 00 00 00 00 00 00 00 00 00 00 00 00 00 00 00 	
373	17:26:27.075	0.00000130	WitMotion.exe	IOCTL_SERIAL_WAIT_ON_MASK           	COM6	SUCCESS		
374	17:26:27.075	0.00653160	WitMotion.exe	IOCTL_SERIAL_WAIT_ON_MASK           	COM6	SUCCESS		
375	17:26:27.075	0.00000120	WitMotion.exe	IRP_MJ_READ                         	COM6	SUCCESS	Length: 19, Data: 00 00 00 08 29 00 00 00 00 00 00 00 00 00 00 00 00 47 40 	
376	17:26:27.080	0.00008410	WitMotion.exe	IRP_MJ_WRITE                        	COM6	SUCCESS	Length: 8, Data: 50 03 00 30 00 17 08 4A 	
377	17:26:27.082	0.00000490	WitMotion.exe	IOCTL_SERIAL_WAIT_ON_MASK           	COM6	SUCCESS		
378	17:26:27.082	0.00210440	WitMotion.exe	IOCTL_SERIAL_WAIT_ON_MASK           	COM6	SUCCESS		
379	17:26:27.082	0.00001800	WitMotion.exe	IRP_MJ_READ                         	COM6	SUCCESS	Length: 32, Data: 50 03 2E 0A 18 0E 09 2B 15 01 F3 F9 1C 02 8C 03 22 00 00 00 00 00 00 00 00 00 00 00 00 00 00 00 	
380	17:26:27.084	0.00000460	WitMotion.exe	IOCTL_SERIAL_WAIT_ON_MASK           	COM6	SUCCESS		
381	17:26:27.084	0.00549400	WitMotion.exe	IOCTL_SERIAL_WAIT_ON_MASK           	COM6	SUCCESS		
382	17:26:27.084	0.00000140	WitMotion.exe	IRP_MJ_READ                         	COM6	SUCCESS	Length: 19, Data: 00 00 00 08 30 00 00 00 00 00 00 00 00 00 00 00 00 E9 4D 	
383	17:26:27.088	0.00008200	WitMotion.exe	IRP_MJ_WRITE                        	COM6	SUCCESS	Length: 8, Data: 50 03 00 30 00 17 08 4A 	
384	17:26:27.090	0.00000140	WitMotion.exe	IOCTL_SERIAL_WAIT_ON_MASK           	COM6	SUCCESS		
385	17:26:27.090	0.00210670	WitMotion.exe	IOCTL_SERIAL_WAIT_ON_MASK           	COM6	SUCCESS		
386	17:26:27.090	0.00000140	WitMotion.exe	IRP_MJ_READ                         	COM6	SUCCESS	Length: 32, Data: 50 03 2E 0A 18 0E 09 2B 15 01 FD F9 17 02 88 03 21 00 00 00 00 00 00 00 00 00 00 00 00 00 00 00 	
387	17:26:27.092	0.00000400	WitMotion.exe	IOCTL_SERIAL_WAIT_ON_MASK           	COM6	SUCCESS		
388	17:26:27.092	0.00816410	WitMotion.exe	IOCTL_SERIAL_WAIT_ON_MASK           	COM6	SUCCESS		
389	17:26:27.092	0.00000130	WitMotion.exe	IRP_MJ_READ                         	COM6	SUCCESS	Length: 19, Data: 00 00 00 08 29 00 00 00 00 00 00 00 00 00 00 00 00 7A AC 	
390	17:26:27.098	0.00012260	WitMotion.exe	IRP_MJ_WRITE                        	COM6	SUCCESS	Length: 8, Data: 50 03 00 30 00 17 08 4A 	
391	17:26:27.101	0.00000160	WitMotion.exe	IOCTL_SERIAL_WAIT_ON_MASK           	COM6	SUCCESS		
392	17:26:27.101	0.00209840	WitMotion.exe	IOCTL_SERIAL_WAIT_ON_MASK           	COM6	SUCCESS		
393	17:26:27.101	0.00000200	WitMotion.exe	IRP_MJ_READ                         	COM6	SUCCESS	Length: 32, Data: 50 03 2E 0A 18 0E 09 2B 15 02 07 F9 1F 02 8A 03 1C 00 00 00 00 00 00 00 00 00 00 00 00 00 00 00 	
394	17:26:27.103	0.00000430	WitMotion.exe	IOCTL_SERIAL_WAIT_ON_MASK           	COM6	SUCCESS		
395	17:26:27.103	0.00800670	WitMotion.exe	IOCTL_SERIAL_WAIT_ON_MASK           	COM6	SUCCESS		
396	17:26:27.103	0.00000150	WitMotion.exe	IRP_MJ_READ                         	COM6	SUCCESS	Length: 19, Data: 00 00 00 08 30 00 00 00 00 00 00 00 00 00 00 00 00 BC 48 	
397	17:26:27.109	0.00008370	WitMotion.exe	IRP_MJ_WRITE                        	COM6	SUCCESS	Length: 8, Data: 50 03 00 30 00 17 08 4A 	
398	17:26:27.111	0.00000590	WitMotion.exe	IOCTL_SERIAL_WAIT_ON_MASK           	COM6	SUCCESS		
399	17:26:27.111	0.00210160	WitMotion.exe	IOCTL_SERIAL_WAIT_ON_MASK           	COM6	SUCCESS		
400	17:26:27.111	0.00000170	WitMotion.exe	IRP_MJ_READ                         	COM6	SUCCESS	Length: 32, Data: 50 03 2E 0A 18 0E 09 2B 15 02 11 F9 1A 02 95 03 21 00 00 00 00 00 00 00 00 00 00 00 00 00 00 00 	
401	17:26:27.113	0.00000100	WitMotion.exe	IOCTL_SERIAL_WAIT_ON_MASK           	COM6	SUCCESS		
403	17:26:27.113	0.00000640	WitMotion.exe	IRP_MJ_READ                         	COM6	SUCCESS	Length: 19, Data: 00 00 00 08 36 00 00 00 00 00 00 00 00 00 00 00 00 F5 3C 	
404	17:26:27.119	0.00009670	WitMotion.exe	IRP_MJ_WRITE                        	COM6	SUCCESS	Length: 8, Data: 50 03 00 30 00 17 08 4A 	
406	17:26:27.121	0.00198650	WitMotion.exe	IOCTL_SERIAL_WAIT_ON_MASK           	COM6	SUCCESS		
407	17:26:27.121	0.00000140	WitMotion.exe	IRP_MJ_READ                         	COM6	SUCCESS	Length: 32, Data: 50 03 2E 0A 18 0E 09 2B 15 02 1B F9 1A 02 8F 03 1B 00 00 00 00 00 00 00 00 00 00 00 00 00 00 00 	
409	17:26:27.122	0.00780280	WitMotion.exe	IOCTL_SERIAL_WAIT_ON_MASK           	COM6	SUCCESS		
410	17:26:27.123	0.00000170	WitMotion.exe	IRP_MJ_READ                         	COM6	SUCCESS	Length: 19, Data: 00 00 00 08 36 00 00 00 00 00 00 00 00 00 00 00 00 B1 8F 	
411	17:26:27.129	0.00009280	WitMotion.exe	IRP_MJ_WRITE                        	COM6	SUCCESS	Length: 8, Data: 50 03 00 30 00 17 08 4A 	
412	17:26:27.131	0.00000150	WitMotion.exe	IOCTL_SERIAL_WAIT_ON_MASK           	COM6	SUCCESS		
414	17:26:27.131	0.00000490	WitMotion.exe	IRP_MJ_READ                         	COM6	SUCCESS	Length: 32, Data: 50 03 2E 0A 18 0E 09 2B 15 02 25 F9 18 02 8D 03 1C 00 00 00 00 00 00 00 00 00 00 00 00 00 00 00 	
415	17:26:27.133	0.00000490	WitMotion.exe	IOCTL_SERIAL_WAIT_ON_MASK           	COM6	SUCCESS		
416	17:26:27.133	0.00802270	WitMotion.exe	IOCTL_SERIAL_WAIT_ON_MASK           	COM6	SUCCESS		
417	17:26:27.133	0.00000130	WitMotion.exe	IRP_MJ_READ                         	COM6	SUCCESS	Length: 19, Data: 00 00 00 08 30 00 00 00 00 00 00 00 00 00 00 00 00 0F 61 	
418	17:26:27.139	0.00009770	WitMotion.exe	IRP_MJ_WRITE                        	COM6	SUCCESS	Length: 8, Data: 50 03 00 30 00 17 08 4A 	
419	17:26:27.141	0.00000500	WitMotion.exe	IOCTL_SERIAL_WAIT_ON_MASK           	COM6	SUCCESS		
420	17:26:27.141	0.00196570	WitMotion.exe	IOCTL_SERIAL_WAIT_ON_MASK           	COM6	SUCCESS		
421	17:26:27.141	0.00000190	WitMotion.exe	IRP_MJ_READ                         	COM6	SUCCESS	Length: 32, Data: 50 03 2E 0A 18 0E 09 2B 15 02 2F F9 1F 02 91 03 27 00 00 00 00 00 00 00 00 00 00 00 00 00 00 00 	
422	17:26:27.143	0.00000140	WitMotion.exe	IOCTL_SERIAL_WAIT_ON_MASK           	COM6	SUCCESS		
423	17:26:27.143	0.00602500	WitMotion.exe	IOCTL_SERIAL_WAIT_ON_MASK           	COM6	SUCCESS		
424	17:26:27.143	0.00000130	WitMotion.exe	IRP_MJ_READ                         	COM6	SUCCESS	Length: 19, Data: 00 00 00 08 36 00 00 00 00 00 00 00 00 00 00 00 00 90 E4 	
425	17:26:27.147	0.00009410	WitMotion.exe	IRP_MJ_WRITE                        	COM6	SUCCESS	Length: 8, Data: 50 03 00 30 00 17 08 4A 	
427	17:26:27.149	0.00210800	WitMotion.exe	IOCTL_SERIAL_WAIT_ON_MASK           	COM6	SUCCESS		
428	17:26:27.149	0.00000160	WitMotion.exe	IRP_MJ_READ                         	COM6	SUCCESS	Length: 32, Data: 50 03 2E 0A 18 0E 09 2B 15 02 39 F9 20 02 8E 03 1B 00 00 00 00 00 00 00 00 00 00 00 00 00 00 00 	
429	17:26:27.152	0.00000110	WitMotion.exe	IOCTL_SERIAL_WAIT_ON_MASK           	COM6	SUCCESS		
430	17:26:27.152	0.00625460	WitMotion.exe	IOCTL_SERIAL_WAIT_ON_MASK           	COM6	SUCCESS		
431	17:26:27.152	0.00000540	WitMotion.exe	IRP_MJ_READ                         	COM6	SUCCESS	Length: 19, Data: 00 00 00 08 1D 00 00 00 00 00 00 00 00 00 00 00 00 68 DF 	
432	17:26:27.156	0.00008890	WitMotion.exe	IRP_MJ_WRITE                        	COM6	SUCCESS	Length: 8, Data: 50 03 00 30 00 17 08 4A 	
433	17:26:27.157	0.00000780	WitMotion.exe	IOCTL_SERIAL_WAIT_ON_MASK           	COM6	SUCCESS		
434	17:26:27.157	0.00202120	WitMotion.exe	IOCTL_SERIAL_WAIT_ON_MASK           	COM6	SUCCESS		
435	17:26:27.157	0.00000210	WitMotion.exe	IRP_MJ_READ                         	COM6	SUCCESS	Length: 32, Data: 50 03 2E 0A 18 0E 09 2B 15 02 43 F9 20 02 87 03 22 00 00 00 00 00 00 00 00 00 00 00 00 00 00 00 	
436	17:26:27.159	0.00000370	WitMotion.exe	IOCTL_SERIAL_WAIT_ON_MASK           	COM6	SUCCESS		
437	17:26:27.159	0.00537080	WitMotion.exe	IOCTL_SERIAL_WAIT_ON_MASK           	COM6	SUCCESS		
438	17:26:27.159	0.00000540	WitMotion.exe	IRP_MJ_READ                         	COM6	SUCCESS	Length: 19, Data: 00 00 00 08 1D 00 00 00 00 00 00 00 00 00 00 00 00 F0 6D 	
439	17:26:27.164	0.00008780	WitMotion.exe	IRP_MJ_WRITE                        	COM6	SUCCESS	Length: 8, Data: 50 03 00 30 00 17 08 4A 	
440	17:26:27.165	0.00000140	WitMotion.exe	IOCTL_SERIAL_WAIT_ON_MASK           	COM6	SUCCESS		
441	17:26:27.165	0.00206810	WitMotion.exe	IOCTL_SERIAL_WAIT_ON_MASK           	COM6	SUCCESS		
442	17:26:27.165	0.00000130	WitMotion.exe	IRP_MJ_READ                         	COM6	SUCCESS	Length: 32, Data: 50 03 2E 0A 18 0E 09 2B 15 02 48 F9 1F 02 8E 03 1D 00 00 00 00 00 00 00 00 00 00 00 00 00 00 00 	
443	17:26:27.167	0.00000130	WitMotion.exe	IOCTL_SERIAL_WAIT_ON_MASK           	COM6	SUCCESS		
444	17:26:27.167	0.00814210	WitMotion.exe	IOCTL_SERIAL_WAIT_ON_MASK           	COM6	SUCCESS		
445	17:26:27.167	0.00000160	WitMotion.exe	IRP_MJ_READ                         	COM6	SUCCESS	Length: 19, Data: 00 00 00 08 43 00 00 00 00 00 00 00 00 00 00 00 00 CA 9D 	
446	17:26:27.173	0.00009590	WitMotion.exe	IRP_MJ_WRITE                        	COM6	SUCCESS	Length: 8, Data: 50 03 00 30 00 17 08 4A 	
448	17:26:27.176	0.00202350	WitMotion.exe	IOCTL_SERIAL_WAIT_ON_MASK           	COM6	SUCCESS		
449	17:26:27.176	0.00000160	WitMotion.exe	IRP_MJ_READ                         	COM6	SUCCESS	Length: 32, Data: 50 03 2E 0A 18 0E 09 2B 15 02 52 F9 1C 02 89 03 1E 00 00 00 00 00 00 00 00 00 00 00 00 00 00 00 	
450	17:26:27.178	0.00000370	WitMotion.exe	IOCTL_SERIAL_WAIT_ON_MASK           	COM6	SUCCESS		
451	17:26:27.178	0.00609190	WitMotion.exe	IOCTL_SERIAL_WAIT_ON_MASK           	COM6	SUCCESS		
452	17:26:27.178	0.00000120	WitMotion.exe	IRP_MJ_READ                         	COM6	SUCCESS	Length: 19, Data: 00 00 00 08 1D 00 00 00 00 00 00 00 00 00 00 00 00 8A CB 	
453	17:26:27.181	0.00007790	WitMotion.exe	IRP_MJ_WRITE                        	COM6	SUCCESS	Length: 8, Data: 50 03 00 30 00 17 08 4A 	
454	17:26:27.184	0.00000110	WitMotion.exe	IOCTL_SERIAL_WAIT_ON_MASK           	COM6	SUCCESS		
455	17:26:27.184	0.00205280	WitMotion.exe	IOCTL_SERIAL_WAIT_ON_MASK           	COM6	SUCCESS		
456	17:26:27.184	0.00000140	WitMotion.exe	IRP_MJ_READ                         	COM6	SUCCESS	Length: 32, Data: 50 03 2E 0A 18 0E 09 2B 15 02 5C F9 22 02 8F 03 23 00 00 00 00 00 00 00 00 00 00 00 00 00 00 00 	
457	17:26:27.186	0.00000580	WitMotion.exe	IOCTL_SERIAL_WAIT_ON_MASK           	COM6	SUCCESS		
458	17:26:27.186	0.00721910	WitMotion.exe	IOCTL_SERIAL_WAIT_ON_MASK           	COM6	SUCCESS		
459	17:26:27.186	0.00000140	WitMotion.exe	IRP_MJ_READ                         	COM6	SUCCESS	Length: 19, Data: 00 00 00 08 29 00 00 00 00 00 00 00 00 00 00 00 00 69 5C 	
460	17:26:27.191	0.00008590	WitMotion.exe	IRP_MJ_WRITE                        	COM6	SUCCESS	Length: 8, Data: 50 03 00 30 00 17 08 4A 	
461	17:26:27.193	0.00000130	WitMotion.exe	IOCTL_SERIAL_WAIT_ON_MASK           	COM6	SUCCESS		
462	17:26:27.193	0.00209310	WitMotion.exe	IOCTL_SERIAL_WAIT_ON_MASK           	COM6	SUCCESS		
463	17:26:27.193	0.00000180	WitMotion.exe	IRP_MJ_READ                         	COM6	SUCCESS	Length: 32, Data: 50 03 2E 0A 18 0E 09 2B 15 02 66 F9 1C 02 8B 03 23 00 00 00 00 00 00 00 00 00 00 00 00 00 00 00 	
464	17:26:27.195	0.00000410	WitMotion.exe	IOCTL_SERIAL_WAIT_ON_MASK           	COM6	SUCCESS		
465	17:26:27.195	0.00746950	WitMotion.exe	IOCTL_SERIAL_WAIT_ON_MASK           	COM6	SUCCESS		
467	17:26:27.200	0.00008340	WitMotion.exe	IRP_MJ_WRITE                        	COM6	SUCCESS	Length: 8, Data: 50 03 00 30 00 17 08 4A 	
468	17:26:27.202	0.00000520	WitMotion.exe	IOCTL_SERIAL_WAIT_ON_MASK           	COM6	SUCCESS		
469	17:26:27.202	0.00201510	WitMotion.exe	IOCTL_SERIAL_WAIT_ON_MASK           	COM6	SUCCESS		
470	17:26:27.202	0.00000160	WitMotion.exe	IRP_MJ_READ                         	COM6	SUCCESS	Length: 32, Data: 50 03 2E 0A 18 0E 09 2B 15 02 70 F9 17 02 94 03 21 00 00 00 00 00 00 00 00 00 00 00 00 00 00 00 	
471	17:26:27.205	0.00000600	WitMotion.exe	IOCTL_SERIAL_WAIT_ON_MASK           	COM6	SUCCESS		
472	17:26:27.205	0.00588740	WitMotion.exe	IOCTL_SERIAL_WAIT_ON_MASK           	COM6	SUCCESS		
473	17:26:27.205	0.00000150	WitMotion.exe	IRP_MJ_READ                         	COM6	SUCCESS	Length: 19, Data: 00 00 00 08 29 00 00 00 00 00 00 00 00 00 00 00 00 28 5C 	
474	17:26:27.209	0.00007460	WitMotion.exe	IRP_MJ_WRITE                        	COM6	SUCCESS	Length: 8, Data: 50 03 00 30 00 17 08 4A 	
475	17:26:27.210	0.00000110	WitMotion.exe	IOCTL_SERIAL_WAIT_ON_MASK           	COM6	SUCCESS		
476	17:26:27.210	0.00205510	WitMotion.exe	IOCTL_SERIAL_WAIT_ON_MASK           	COM6	SUCCESS		
477	17:26:27.210	0.00000220	WitMotion.exe	IRP_MJ_READ                         	COM6	SUCCESS	Length: 32, Data: 50 03 2E 0A 18 0E 09 2B 15 02 75 F9 1E 02 88 03 20 00 00 00 00 00 00 00 00 00 00 00 00 00 00 00 	
478	17:26:27.212	0.00000560	WitMotion.exe	IOCTL_SERIAL_WAIT_ON_MASK           	COM6	SUCCESS		
479	17:26:27.213	0.00865890	WitMotion.exe	IOCTL_SERIAL_WAIT_ON_MASK           	COM6	SUCCESS		
480	17:26:27.213	0.00000150	WitMotion.exe	IRP_MJ_READ                         	COM6	SUCCESS	Length: 19, Data: 00 00 00 08 49 00 00 00 00 00 00 00 00 00 00 00 00 14 33 	
481	17:26:27.220	0.00008200	WitMotion.exe	IRP_MJ_WRITE                        	COM6	SUCCESS	Length: 8, Data: 50 03 00 30 00 17 08 4A 	
483	17:26:27.222	0.00203200	WitMotion.exe	IOCTL_SERIAL_WAIT_ON_MASK           	COM6	SUCCESS		
484	17:26:27.222	0.00000140	WitMotion.exe	IRP_MJ_READ                         	COM6	SUCCESS	Length: 32, Data: 50 03 2E 0A 18 0E 09 2B 15 02 7F F9 21 02 90 03 1A 00 00 00 00 00 00 00 00 00 00 00 00 00 00 00 	
485	17:26:27.223	0.00000390	WitMotion.exe	IOCTL_SERIAL_WAIT_ON_MASK           	COM6	SUCCESS		
487	17:26:27.223	0.00000500	WitMotion.exe	IRP_MJ_READ                         	COM6	SUCCESS	Length: 19, Data: 00 00 00 08 30 00 00 00 00 00 00 00 00 00 00 00 00 73 4B 	
488	17:26:27.230	0.00010510	WitMotion.exe	IRP_MJ_WRITE                        	COM6	SUCCESS	Length: 8, Data: 50 03 00 30 00 17 08 4A 	
489	17:26:27.232	0.00000480	WitMotion.exe	IOCTL_SERIAL_WAIT_ON_MASK           	COM6	SUCCESS		
490	17:26:27.232	0.00200620	WitMotion.exe	IOCTL_SERIAL_WAIT_ON_MASK           	COM6	SUCCESS		
491	17:26:27.232	0.00000160	WitMotion.exe	IRP_MJ_READ                         	COM6	SUCCESS	Length: 32, Data: 50 03 2E 0A 18 0E 09 2B 15 02 89 F9 1D 02 8F 03 23 00 00 00 00 00 00 00 00 00 00 00 00 00 00 00 	
492	17:26:27.233	0.00000140	WitMotion.exe	IOCTL_SERIAL_WAIT_ON_MASK           	COM6	SUCCESS		
493	17:26:27.233	0.00705180	WitMotion.exe	IOCTL_SERIAL_WAIT_ON_MASK           	COM6	SUCCESS		
494	17:26:27.233	0.00000120	WitMotion.exe	IRP_MJ_READ                         	COM6	SUCCESS	Length: 19, Data: 00 00 00 08 43 00 00 00 00 00 00 00 00 00 00 00 00 30 5E 	
495	17:26:27.239	0.00009900	WitMotion.exe	IRP_MJ_WRITE                        	COM6	SUCCESS	Length: 8, Data: 50 03 00 30 00 17 08 4A 	
496	17:26:27.240	0.00000100	WitMotion.exe	IOCTL_SERIAL_WAIT_ON_MASK           	COM6	SUCCESS		
497	17:26:27.240	0.00211190	WitMotion.exe	IOCTL_SERIAL_WAIT_ON_MASK           	COM6	SUCCESS		
498	17:26:27.240	0.00000560	WitMotion.exe	IRP_MJ_READ                         	COM6	SUCCESS	Length: 32, Data: 50 03 2E 0A 18 0E 09 2B 15 02 93 F9 1D 02 90 03 15 00 00 00 00 00 00 00 00 00 00 00 00 00 00 00 	
499	17:26:27.242	0.00000460	WitMotion.exe	IOCTL_SERIAL_WAIT_ON_MASK           	COM6	SUCCESS		
500	17:26:27.242	0.00677910	WitMotion.exe	IOCTL_SERIAL_WAIT_ON_MASK           	COM6	SUCCESS		
501	17:26:27.242	0.00000130	WitMotion.exe	IRP_MJ_READ                         	COM6	SUCCESS	Length: 19, Data: 00 00 00 08 30 00 00 00 00 00 00 00 00 00 00 00 00 1F DC 	
502	17:26:27.248	0.00009980	WitMotion.exe	IRP_MJ_WRITE                        	COM6	SUCCESS	Length: 8, Data: 50 03 00 30 00 17 08 4A 	
503	17:26:27.249	0.00000530	WitMotion.exe	IOCTL_SERIAL_WAIT_ON_MASK           	COM6	SUCCESS		
504	17:26:27.249	0.00202940	WitMotion.exe	IOCTL_SERIAL_WAIT_ON_MASK           	COM6	SUCCESS		
505	17:26:27.249	0.00000150	WitMotion.exe	IRP_MJ_READ                         	COM6	SUCCESS	Length: 32, Data: 50 03 2E 0A 18 0E 09 2B 15 02 9D F9 17 02 91 03 20 00 00 00 00 00 00 00 00 00 00 00 00 00 00 00 	
506	17:26:27.251	0.00000100	WitMotion.exe	IOCTL_SERIAL_WAIT_ON_MASK           	COM6	SUCCESS		
507	17:26:27.251	0.00777270	WitMotion.exe	IOCTL_SERIAL_WAIT_ON_MASK           	COM6	SUCCESS		
508	17:26:27.251	0.00000180	WitMotion.exe	IRP_MJ_READ                         	COM6	SUCCESS	Length: 19, Data: 00 00 00 08 29 00 00 00 00 00 00 00 00 00 00 00 00 21 A7 	
509	17:26:27.258	0.00008260	WitMotion.exe	IRP_MJ_WRITE                        	COM6	SUCCESS	Length: 8, Data: 50 03 00 30 00 17 08 4A 	
510	17:26:27.259	0.00000590	WitMotion.exe	IOCTL_SERIAL_WAIT_ON_MASK           	COM6	SUCCESS		
511	17:26:27.259	0.00208130	WitMotion.exe	IOCTL_SERIAL_WAIT_ON_MASK           	COM6	SUCCESS		
512	17:26:27.259	0.00000160	WitMotion.exe	IRP_MJ_READ                         	COM6	SUCCESS	Length: 32, Data: 50 03 2E 0A 18 0E 09 2B 15 02 A7 F9 18 02 92 03 1A 00 00 00 00 00 00 00 00 00 00 00 00 00 00 00 	
513	17:26:27.262	0.00000130	WitMotion.exe	IOCTL_SERIAL_WAIT_ON_MASK           	COM6	SUCCESS		
514	17:26:27.262	0.00751920	WitMotion.exe	IOCTL_SERIAL_WAIT_ON_MASK           	COM6	SUCCESS		
515	17:26:27.262	0.00000160	WitMotion.exe	IRP_MJ_READ                         	COM6	SUCCESS	Length: 19, Data: 00 00 00 08 29 00 00 00 00 00 00 00 00 00 00 00 00 E4 26 	
516	17:26:27.266	0.00008820	WitMotion.exe	IRP_MJ_WRITE                        	COM6	SUCCESS	Length: 8, Data: 50 03 00 30 00 17 08 4A 	
517	17:26:27.269	0.00000500	WitMotion.exe	IOCTL_SERIAL_WAIT_ON_MASK           	COM6	SUCCESS		
518	17:26:27.269	0.00202970	WitMotion.exe	IOCTL_SERIAL_WAIT_ON_MASK           	COM6	SUCCESS		
519	17:26:27.269	0.00000200	WitMotion.exe	IRP_MJ_READ                         	COM6	SUCCESS	Length: 32, Data: 50 03 2E 0A 18 0E 09 2B 15 02 B1 F9 17 02 8B 03 1D 00 00 00 00 00 00 00 00 00 00 00 00 00 00 00 	
520	17:26:27.271	0.00000160	WitMotion.exe	IOCTL_SERIAL_WAIT_ON_MASK           	COM6	SUCCESS		
521	17:26:27.271	0.00641300	WitMotion.exe	IOCTL_SERIAL_WAIT_ON_MASK           	COM6	SUCCESS		
522	17:26:27.271	0.00000190	WitMotion.exe	IRP_MJ_READ                         	COM6	SUCCESS	Length: 19, Data: 00 00 00 08 1D 00 00 00 00 00 00 00 00 00 00 00 00 29 48 	
523	17:26:27.276	0.00008650	WitMotion.exe	IRP_MJ_WRITE                        	COM6	SUCCESS	Length: 8, Data: 50 03 00 30 00 17 08 4A 	
524	17:26:27.277	0.00000510	WitMotion.exe	IOCTL_SERIAL_WAIT_ON_MASK           	COM6	SUCCESS		
525	17:26:27.277	0.00198490	WitMotion.exe	IOCTL_SERIAL_WAIT_ON_MASK           	COM6	SUCCESS		
526	17:26:27.277	0.00000170	WitMotion.exe	IRP_MJ_READ                         	COM6	SUCCESS	Length: 32, Data: 50 03 2E 0A 18 0E 09 2B 15 02 BB F9 16 02 8A 03 1C 00 00 00 00 00 00 00 00 00 00 00 00 00 00 00 	
527	17:26:27.279	0.00000260	WitMotion.exe	IOCTL_SERIAL_WAIT_ON_MASK           	COM6	SUCCESS		
528	17:26:27.279	0.00617140	WitMotion.exe	IOCTL_SERIAL_WAIT_ON_MASK           	COM6	SUCCESS		
530	17:26:27.284	0.00008530	WitMotion.exe	IRP_MJ_WRITE                        	COM6	SUCCESS	Length: 8, Data: 50 03 00 30 00 17 08 4A 	
531	17:26:27.286	0.00000540	WitMotion.exe	IOCTL_SERIAL_WAIT_ON_MASK           	COM6	SUCCESS		
532	17:26:27.286	0.00210280	WitMotion.exe	IOCTL_SERIAL_WAIT_ON_MASK           	COM6	SUCCESS		
533	17:26:27.286	0.00000180	WitMotion.exe	IRP_MJ_READ                         	COM6	SUCCESS	Length: 32, Data: 50 03 2E 0A 18 0E 09 2B 15 02 C0 F9 1F 02 91 03 1A 00 00 00 00 00 00 00 00 00 00 00 00 00 00 00 	
534	17:26:27.287	0.00000140	WitMotion.exe	IOCTL_SERIAL_WAIT_ON_MASK           	COM6	SUCCESS		
535	17:26:27.287	0.00642990	WitMotion.exe	IOCTL_SERIAL_WAIT_ON_MASK           	COM6	SUCCESS		
536	17:26:27.287	0.00000150	WitMotion.exe	IRP_MJ_READ                         	COM6	SUCCESS	Length: 19, Data: 00 00 00 08 1D 00 00 00 00 00 00 00 00 00 00 00 00 E6 E5 	
537	17:26:27.292	0.00014740	WitMotion.exe	IRP_MJ_WRITE                        	COM6	SUCCESS	Length: 8, Data: 50 03 00 30 00 17 08 4A 	
538	17:26:27.295	0.00000120	WitMotion.exe	IOCTL_SERIAL_WAIT_ON_MASK           	COM6	SUCCESS		
541	17:26:27.297	0.00000570	WitMotion.exe	IOCTL_SERIAL_WAIT_ON_MASK           	COM6	SUCCESS		
542	17:26:27.297	0.00715760	WitMotion.exe	IOCTL_SERIAL_WAIT_ON_MASK           	COM6	SUCCESS		
543	17:26:27.297	0.00000160	WitMotion.exe	IRP_MJ_READ                         	COM6	SUCCESS	Length: 19, Data: 00 00 00 08 29 00 00 00 00 00 00 00 00 00 00 00 00 79 E1 	
544	17:26:27.301	0.00009240	WitMotion.exe	IRP_MJ_WRITE                        	COM6	SUCCESS	Length: 8, Data: 50 03 00 30 00 17 08 4A 	
546	17:26:27.303	0.00199760	WitMotion.exe	IOCTL_SERIAL_WAIT_ON_MASK           	COM6	SUCCESS		
547	17:26:27.303	0.00000190	WitMotion.exe	IRP_MJ_READ                         	COM6	SUCCESS	Length: 32, Data: 50 03 2E 0A 18 0E 09 2B 15 02 D4 F9 20 02 8D 03 22 00 00 00 00 00 00 00 00 00 00 00 00 00 00 00 	
548	17:26:27.306	0.00000120	WitMotion.exe	IOCTL_SERIAL_WAIT_ON_MASK           	COM6	SUCCESS		
549	17:26:27.306	0.00770990	WitMotion.exe	IOCTL_SERIAL_WAIT_ON_MASK           	COM6	SUCCESS		
550	17:26:27.306	0.00000130	WitMotion.exe	IRP_MJ_READ                         	COM6	SUCCESS	Length: 19, Data: 00 00 00 08 30 00 00 00 00 00 00 00 00 00 00 00 00 C2 C1 	
551	17:26:27.312	0.00007870	WitMotion.exe	IRP_MJ_WRITE                        	COM6	SUCCESS	Length: 8, Data: 50 03 00 30 00 17 08 4A 	
553	17:26:27.313	0.00196200	WitMotion.exe	IOCTL_SERIAL_WAIT_ON_MASK           	COM6	SUCCESS		
554	17:26:27.313	0.00000270	WitMotion.exe	IRP_MJ_READ                         	COM6	SUCCESS	Length: 32, Data: 50 03 2E 0A 18 0E 09 2B 15 02 DE F9 1A 02 8E 03 1B 00 00 00 00 00 00 00 00 00 00 00 00 00 00 00 	
555	17:26:27.315	0.00000120	WitMotion.exe	IOCTL_SERIAL_WAIT_ON_MASK           	COM6	SUCCESS		
556	17:26:27.315	0.00681730	WitMotion.exe	IOCTL_SERIAL_WAIT_ON_MASK           	COM6	SUCCESS		
557	17:26:27.315	0.00000400	WitMotion.exe	IRP_MJ_READ                         	COM6	SUCCESS	Length: 19, Data: 00 00 00 08 43 00 00 00 00 00 00 00 00 00 00 00 00 AC E0 	
558	17:26:27.321	0.00008700	WitMotion.exe	IRP_MJ_WRITE                        	COM6	SUCCESS	Length: 8, Data: 50 03 00 30 00 17 08 4A 	
560	17:26:27.322	0.00201150	WitMotion.exe	IOCTL_SERIAL_WAIT_ON_MASK           	COM6	SUCCESS		
561	17:26:27.322	0.00000140	WitMotion.exe	IRP_MJ_READ                         	COM6	SUCCESS	Length: 32, Data: 50 03 2E 0A 18 0E 09 2B 15 02 E8 F9 1A 02 93 03 19 00 00 00 00 00 00 00 00 00 00 00 00 00 00 00 	
562	17:26:27.324	0.00000510	WitMotion.exe	IOCTL_SERIAL_WAIT_ON_MASK           	COM6	SUCCESS		
563	17:26:27.324	0.00611330	WitMotion.exe	IOCTL_SERIAL_WAIT_ON_MASK           	COM6	SUCCESS		
564	17:26:27.324	0.00000160	WitMotion.exe	IRP_MJ_READ                         	COM6	SUCCESS	Length: 19, Data: 00 00 00 08 49 00 00 00 00 00 00 00 00 00 00 00 00 D2 00 	
565	17:26:27.329	0.00008190	WitMotion.exe	IRP_MJ_WRITE                        	COM6	SUCCESS	Length: 8, Data: 50 03 00 30 00 17 08 4A 	
566	17:26:27.330	0.00000150	WitMotion.exe	IOCTL_SERIAL_WAIT_ON_MASK           	COM6	SUCCESS		
568	17:26:27.330	0.00199850	WitMotion.exe	IOCTL_SERIAL_WAIT_ON_MASK           	COM6	SUCCESS		
569	17:26:27.333	0.00000120	WitMotion.exe	IOCTL_SERIAL_WAIT_ON_MASK           	COM6	SUCCESS		
570	17:26:27.333	0.00000150	WitMotion.exe	IRP_MJ_READ                         	COM6	SUCCESS	Length: 19, Data: 00 00 00 08 23 00 00 00 00 00 00 00 00 00 00 00 00 83 34 	
571	17:26:27.333	0.00710740	WitMotion.exe	IOCTL_SERIAL_WAIT_ON_MASK           	COM6	SUCCESS		
572	17:26:27.338	0.00009470	WitMotion.exe	IRP_MJ_WRITE                        	COM6	SUCCESS	Length: 8, Data: 50 03 00 30 00 17 08 4A 	
573	17:26:27.340	0.00000580	WitMotion.exe	IOCTL_SERIAL_WAIT_ON_MASK           	COM6	SUCCESS		
574	17:26:27.340	0.00202510	WitMotion.exe	IOCTL_SERIAL_WAIT_ON_MASK           	COM6	SUCCESS		
575	17:26:27.340	0.00000170	WitMotion.exe	IRP_MJ_READ                         	COM6	SUCCESS	Length: 32, Data: 50 03 2E 0A 18 0E 09 2B 15 02 F7 F9 1E 02 93 03 19 00 00 00 00 00 00 00 00 00 00 00 00 00 00 00 	
576	17:26:27.342	0.00000130	WitMotion.exe	IOCTL_SERIAL_WAIT_ON_MASK           	COM6	SUCCESS		
577	17:26:27.342	0.00000460	WitMotion.exe	IRP_MJ_READ                         	COM6	SUCCESS	Length: 19, Data: 00 00 00 08 29 00 00 00 00 00 00 00 00 00 00 00 00 CC 44 	
578	17:26:27.342	0.00663990	WitMotion.exe	IOCTL_SERIAL_WAIT_ON_MASK           	COM6	SUCCESS		
579	17:26:27.346	0.00008190	WitMotion.exe	IRP_MJ_WRITE                        	COM6	SUCCESS	Length: 8, Data: 50 03 00 30 00 17 08 4A 	
580	17:26:27.349	0.00000200	WitMotion.exe	IOCTL_SERIAL_WAIT_ON_MASK           	COM6	SUCCESS		
581	17:26:27.349	0.00198000	WitMotion.exe	IOCTL_SERIAL_WAIT_ON_MASK           	COM6	SUCCESS		
582	17:26:27.349	0.00000190	WitMotion.exe	IRP_MJ_READ                         	COM6	SUCCESS	Length: 32, Data: 50 03 2E 0A 18 0E 09 2B 15 03 01 F9 19 02 8E 03 1B 00 00 00 00 00 00 00 00 00 00 00 00 00 00 00 	
583	17:26:27.351	0.00000590	WitMotion.exe	IOCTL_SERIAL_WAIT_ON_MASK           	COM6	SUCCESS		
584	17:26:27.351	0.00644140	WitMotion.exe	IOCTL_SERIAL_WAIT_ON_MASK           	COM6	SUCCESS		
585	17:26:27.351	0.00000160	WitMotion.exe	IRP_MJ_READ                         	COM6	SUCCESS	Length: 19, Data: 00 00 00 08 29 00 00 00 00 00 00 00 00 00 00 00 00 FA 5E 	
586	17:26:27.355	0.00013090	WitMotion.exe	IRP_MJ_WRITE                        	COM6	SUCCESS	Length: 8, Data: 50 03 00 30 00 17 08 4A 	
587	17:26:27.357	0.00000130	WitMotion.exe	IOCTL_SERIAL_WAIT_ON_MASK           	COM6	SUCCESS		
588	17:26:27.357	0.00202190	WitMotion.exe	IOCTL_SERIAL_WAIT_ON_MASK           	COM6	SUCCESS		
589	17:26:27.357	0.00000140	WitMotion.exe	IRP_MJ_READ                         	COM6	SUCCESS	Length: 32, Data: 50 03 2E 0A 18 0E 09 2B 15 03 06 F9 1F 02 88 03 22 00 00 00 00 00 00 00 00 00 00 00 00 00 00 00 	
590	17:26:27.359	0.00000450	WitMotion.exe	IOCTL_SERIAL_WAIT_ON_MASK           	COM6	SUCCESS		
592	17:26:27.359	0.00000490	WitMotion.exe	IRP_MJ_READ                         	COM6	SUCCESS	Length: 19, Data: 00 00 00 08 29 00 00 00 00 00 00 00 00 00 00 00 00 28 72 	
593	17:26:27.365	0.00007870	WitMotion.exe	IRP_MJ_WRITE                        	COM6	SUCCESS	Length: 8, Data: 50 03 00 30 00 17 08 4A 	
594	17:26:27.366	0.00000680	WitMotion.exe	IOCTL_SERIAL_WAIT_ON_MASK           	COM6	SUCCESS		
595	17:26:27.366	0.00208140	WitMotion.exe	IOCTL_SERIAL_WAIT_ON_MASK           	COM6	SUCCESS		
596	17:26:27.366	0.00000240	WitMotion.exe	IRP_MJ_READ                         	COM6	SUCCESS	Length: 32, Data: 50 03 2E 0A 18 0E 09 2B 15 03 10 F9 1B 02 83 03 1F 00 00 00 00 00 00 00 00 00 00 00 00 00 00 00 	
597	17:26:27.368	0.00000190	WitMotion.exe	IOCTL_SERIAL_WAIT_ON_MASK           	COM6	SUCCESS		
598	17:26:27.368	0.00643310	WitMotion.exe	IOCTL_SERIAL_WAIT_ON_MASK           	COM6	SUCCESS		
599	17:26:27.368	0.00000540	WitMotion.exe	IRP_MJ_READ                         	COM6	SUCCESS	Length: 19, Data: 00 00 00 08 29 00 00 00 00 00 00 00 00 00 00 00 00 10 52 	
600	17:26:27.373	0.00009340	WitMotion.exe	IRP_MJ_WRITE                        	COM6	SUCCESS	Length: 8, Data: 50 03 00 30 00 17 08 4A 	
602	17:26:27.375	0.00201750	WitMotion.exe	IOCTL_SERIAL_WAIT_ON_MASK           	COM6	SUCCESS		
603	17:26:27.375	0.00000210	WitMotion.exe	IRP_MJ_READ                         	COM6	SUCCESS	Length: 32, Data: 50 03 2E 0A 18 0E 09 2B 15 03 1A F9 1C 02 8F 03 19 00 00 00 00 00 00 00 00 00 00 00 00 00 00 00 	
604	17:26:27.377	0.00000130	WitMotion.exe	IOCTL_SERIAL_WAIT_ON_MASK           	COM6	SUCCESS		
605	17:26:27.377	0.00652780	WitMotion.exe	IOCTL_SERIAL_WAIT_ON_MASK           	COM6	SUCCESS		
606	17:26:27.377	0.00000160	WitMotion.exe	IRP_MJ_READ                         	COM6	SUCCESS	Length: 19, Data: 00 00 00 08 1D 00 00 00 00 00 00 00 00 00 00 00 00 E5 6E 	
607	17:26:27.382	0.00008900	WitMotion.exe	IRP_MJ_WRITE                        	COM6	SUCCESS	Length: 8, Data: 50 03 00 30 00 17 08 4A 	
608	17:26:27.384	0.00000140	WitMotion.exe	IOCTL_SERIAL_WAIT_ON_MASK           	COM6	SUCCESS		
609	17:26:27.384	0.00211860	WitMotion.exe	IOCTL_SERIAL_WAIT_ON_MASK           	COM6	SUCCESS		
610	17:26:27.384	0.00000150	WitMotion.exe	IRP_MJ_READ                         	COM6	SUCCESS	Length: 32, Data: 50 03 2E 0A 18 0E 09 2B 15 03 24 F9 1E 02 8D 03 1B 00 00 00 00 00 00 00 00 00 00 00 00 00 00 00 	
611	17:26:27.386	0.00000130	WitMotion.exe	IOCTL_SERIAL_WAIT_ON_MASK           	COM6	SUCCESS		
612	17:26:27.386	0.00701510	WitMotion.exe	IOCTL_SERIAL_WAIT_ON_MASK           	COM6	SUCCESS		
613	17:26:27.386	0.00000120	WitMotion.exe	IRP_MJ_READ                         	COM6	SUCCESS	Length: 19, Data: 00 00 00 08 30 00 00 00 00 00 00 00 00 00 00 00 00 E2 6A 	
614	17:26:27.391	0.00010170	WitMotion.exe	IRP_MJ_WRITE                        	COM6	SUCCESS	Length: 8, Data: 50 03 00 30 00 17 08 4A 	
615	17:26:27.393	0.00000470	WitMotion.exe	IOCTL_SERIAL_WAIT_ON_MASK           	COM6	SUCCESS		
616	17:26:27.393	0.00197320	WitMotion.exe	IOCTL_SERIAL_WAIT_ON_MASK           	COM6	SUCCESS		
617	17:26:27.393	0.00000140	WitMotion.exe	IRP_MJ_READ                         	COM6	SUCCESS	Length: 32, Data: 50 03 2E 0A 18 0E 09 2B 15 03 2E F9 1A 02 89 03 21 00 00 00 00 00 00 00 00 00 00 00 00 00 00 00 	
618	17:26:27.395	0.00000100	WitMotion.exe	IOCTL_SERIAL_WAIT_ON_MASK           	COM6	SUCCESS		
619	17:26:27.395	0.00953560	WitMotion.exe	IOCTL_SERIAL_WAIT_ON_MASK           	COM6	SUCCESS		
620	17:26:27.395	0.00000600	WitMotion.exe	IRP_MJ_READ                         	COM6	SUCCESS	Length: 19, Data: 00 00 00 08 23 00 00 00 00 00 00 00 00 00 00 00 00 BD 49 	
621	17:26:27.403	0.00008330	WitMotion.exe	IRP_MJ_WRITE                        	COM6	SUCCESS	Length: 8, Data: 50 03 00 30 00 17 08 4A 	
622	17:26:27.405	0.00000630	WitMotion.exe	IOCTL_SERIAL_WAIT_ON_MASK           	COM6	SUCCESS		
623	17:26:27.405	0.00202430	WitMotion.exe	IOCTL_SERIAL_WAIT_ON_MASK           	COM6	SUCCESS		
624	17:26:27.405	0.00000220	WitMotion.exe	IRP_MJ_READ                         	COM6	SUCCESS	Length: 32, Data: 50 03 2E 0A 18 0E 09 2B 15 03 38 F9 1D 02 8F 03 20 00 00 00 00 00 00 00 00 00 00 00 00 00 00 00 	
625	17:26:27.406	0.00000130	WitMotion.exe	IOCTL_SERIAL_WAIT_ON_MASK           	COM6	SUCCESS		
626	17:26:27.406	0.00653640	WitMotion.exe	IOCTL_SERIAL_WAIT_ON_MASK           	COM6	SUCCESS		
627	17:26:27.406	0.00000130	WitMotion.exe	IRP_MJ_READ                         	COM6	SUCCESS	Length: 19, Data: 00 00 00 08 43 00 00 00 00 00 00 00 00 00 00 00 00 43 F1 	
628	17:26:27.412	0.00008860	WitMotion.exe	IRP_MJ_WRITE                        	COM6	SUCCESS	Length: 8, Data: 50 03 00 30 00 17 08 4A 	
629	17:26:27.414	0.00000140	WitMotion.exe	IOCTL_SERIAL_WAIT_ON_MASK           	COM6	SUCCESS		
630	17:26:27.414	0.00209830	WitMotion.exe	IOCTL_SERIAL_WAIT_ON_MASK           	COM6	SUCCESS		
631	17:26:27.414	0.00000170	WitMotion.exe	IRP_MJ_READ                         	COM6	SUCCESS	Length: 32, Data: 50 03 2E 0A 18 0E 09 2B 15 03 42 F9 19 02 8D 03 1F 00 00 00 00 00 00 00 00 00 00 00 00 00 00 00 	
633	17:26:27.416	0.00840760	WitMotion.exe	IOCTL_SERIAL_WAIT_ON_MASK           	COM6	SUCCESS		
634	17:26:27.416	0.00000160	WitMotion.exe	IRP_MJ_READ                         	COM6	SUCCESS	Length: 19, Data: 00 00 00 08 30 00 00 00 00 00 00 00 00 00 00 00 00 61 B0 	
635	17:26:27.422	0.00009700	WitMotion.exe	IRP_MJ_WRITE                        	COM6	SUCCESS	Length: 8, Data: 50 03 00 30 00 17 08 4A 	
636	17:26:27.423	0.00000620	WitMotion.exe	IOCTL_SERIAL_WAIT_ON_MASK           	COM6	SUCCESS		
637	17:26:27.423	0.00195020	WitMotion.exe	IOCTL_SERIAL_WAIT_ON_MASK           	COM6	SUCCESS		
638	17:26:27.423	0.00000180	WitMotion.exe	IRP_MJ_READ                         	COM6	SUCCESS	Length: 32, Data: 50 03 2E 0A 18 0E 09 2B 15 03 4C F9 1C 02 90 03 12 00 00 00 00 00 00 00 00 00 00 00 00 00 00 00 	
639	17:26:27.425	0.00000170	WitMotion.exe	IOCTL_SERIAL_WAIT_ON_MASK           	COM6	SUCCESS		
640	17:26:27.425	0.00761010	WitMotion.exe	IOCTL_SERIAL_WAIT_ON_MASK           	COM6	SUCCESS		
641	17:26:27.425	0.00000200	WitMotion.exe	IRP_MJ_READ                         	COM6	SUCCESS	Length: 19, Data: 00 00 00 08 29 00 00 00 00 00 00 00 00 00 00 00 00 CD 30 	
642	17:26:27.431	0.00008130	WitMotion.exe	IRP_MJ_WRITE                        	COM6	SUCCESS	Length: 8, Data: 50 03 00 30 00 17 08 4A 	
643	17:26:27.433	0.00000140	WitMotion.exe	IOCTL_SERIAL_WAIT_ON_MASK           	COM6	SUCCESS		
644	17:26:27.433	0.00203620	WitMotion.exe	IOCTL_SERIAL_WAIT_ON_MASK           	COM6	SUCCESS		
645	17:26:27.433	0.00000640	WitMotion.exe	IRP_MJ_READ                         	COM6	SUCCESS	Length: 32, Data: 50 03 2E 0A 18 0E 09 2B 15 03 56 F9 1E 02 91 03 1B 00 00 00 00 00 00 00 00 00 00 00 00 00 00 00 	
646	17:26:27.435	0.00000120	WitMotion.exe	IOCTL_SERIAL_WAIT_ON_MASK           	COM6	SUCCESS		
647	17:26:27.435	0.00644970	WitMotion.exe	IOCTL_SERIAL_WAIT_ON_MASK           	COM6	SUCCESS		
649	17:26:27.440	0.00008730	WitMotion.exe	IRP_MJ_WRITE                        	COM6	SUCCESS	Length: 8, Data: 50 03 00 30 00 17 08 4A 	
651	17:26:27.442	0.00202390	WitMotion.exe	IOCTL_SERIAL_WAIT_ON_MASK           	COM6	SUCCESS		
652	17:26:27.442	0.00000160	WitMotion.exe	IRP_MJ_READ                         	COM6	SUCCESS	Length: 32, Data: 50 03 2E 0A 18 0E 09 2B 15 03 5B F9 19 02 91 03 1B 00 00 00 00 00 00 00 00 00 00 00 00 00 00 00 	
653	17:26:27.444	0.00000460	WitMotion.exe	IOCTL_SERIAL_WAIT_ON_MASK           	COM6	SUCCESS		
654	17:26:27.444	0.00662470	WitMotion.exe	IOCTL_SERIAL_WAIT_ON_MASK           	COM6	SUCCESS		
655	17:26:27.444	0.00000130	WitMotion.exe	IRP_MJ_READ                         	COM6	SUCCESS	Length: 19, Data: 00 00 00 08 36 00 00 00 00 00 00 00 00 00 00 00 00 08 78 	
656	17:26:27.449	0.00008080	WitMotion.exe	IRP_MJ_WRITE                        	COM6	SUCCESS	Length: 8, Data: 50 03 00 30 00 17 08 4A 	
658	17:26:27.450	0.00202110	WitMotion.exe	IOCTL_SERIAL_WAIT_ON_MASK           	COM6	SUCCESS		
659	17:26:27.450	0.00000150	WitMotion.exe	IRP_MJ_READ                         	COM6	SUCCESS	Length: 32, Data: 50 03 2E 0A 18 0E 09 2B 15 03 65 F9 14 02 8E 03 20 00 00 00 00 00 00 00 00 00 00 00 00 00 00 00 	
660	17:26:27.452	0.00000470	WitMotion.exe	IOCTL_SERIAL_WAIT_ON_MASK           	COM6	SUCCESS		
661	17:26:27.452	0.00741320	WitMotion.exe	IOCTL_SERIAL_WAIT_ON_MASK           	COM6	SUCCESS		
662	17:26:27.452	0.00000140	WitMotion.exe	IRP_MJ_READ                         	COM6	SUCCESS	Length: 19, Data: 00 00 00 08 29 00 00 00 00 00 00 00 00 00 00 00 00 9A 35 	
663	17:26:27.459	0.00008170	WitMotion.exe	IRP_MJ_WRITE                        	COM6	SUCCESS	Length: 8, Data: 50 03 00 30 00 17 08 4A 	
664	17:26:27.461	0.00000190	WitMotion.exe	IOCTL_SERIAL_WAIT_ON_MASK           	COM6	SUCCESS		
665	17:26:27.461	0.00197330	WitMotion.exe	IOCTL_SERIAL_WAIT_ON_MASK           	COM6	SUCCESS		
666	17:26:27.461	0.00000130	WitMotion.exe	IRP_MJ_READ                         	COM6	SUCCESS	Length: 32, Data: 50 03 2E 0A 18 0E 09 2B 15 03 6F F9 19 02 93 03 19 00 00 00 00 00 00 00 00 00 00 00 00 00 00 00 	
667	17:26:27.462	0.00000590	WitMotion.exe	IOCTL_SERIAL_WAIT_ON_MASK           	COM6	SUCCESS		
668	17:26:27.462	0.00616700	WitMotion.exe	IOCTL_SERIAL_WAIT_ON_MASK           	COM6	SUCCESS		
669	17:26:27.462	0.00000170	WitMotion.exe	IRP_MJ_READ                         	COM6	SUCCESS	Length: 19, Data: 00 00 00 08 36 00 00 00 00 00 00 00 00 00 00 00 00 07 49 	
670	17:26:27.466	0.00011890	WitMotion.exe	IRP_MJ_WRITE                        	COM6	SUCCESS	Length: 8, Data: 50 03 00 30 00 17 08 4A 	
672	17:26:27.469	0.00205250	WitMotion.exe	IOCTL_SERIAL_WAIT_ON_MASK           	COM6	SUCCESS		
673	17:26:27.469	0.00000180	WitMotion.exe	IRP_MJ_READ                         	COM6	SUCCESS	Length: 32, Data: 50 03 2E 0A 18 0E 09 2B 15 03 79 F9 1F 02 8F 03 1C 00 00 00 00 00 00 00 00 00 00 00 00 00 00 00 	
674	17:26:27.471	0.00000500	WitMotion.exe	IOCTL_SERIAL_WAIT_ON_MASK           	COM6	SUCCESS		
675	17:26:27.471	0.00735510	WitMotion.exe	IOCTL_SERIAL_WAIT_ON_MASK           	COM6	SUCCESS		
676	17:26:27.471	0.00000120	WitMotion.exe	IRP_MJ_READ                         	COM6	SUCCESS	Length: 19, Data: 00 00 00 08 30 00 00 00 00 00 00 00 00 00 00 00 00 3F 05 	
677	17:26:27.476	0.00009750	WitMotion.exe	IRP_MJ_WRITE                        	COM6	SUCCESS	Length: 8, Data: 50 03 00 30 00 17 08 4A 	
678	17:26:27.478	0.00000150	WitMotion.exe	IOCTL_SERIAL_WAIT_ON_MASK           	COM6	SUCCESS		
679	17:26:27.478	0.00198180	WitMotion.exe	IOCTL_SERIAL_WAIT_ON_MASK           	COM6	SUCCESS		
680	17:26:27.478	0.00001900	WitMotion.exe	IRP_MJ_READ                         	COM6	SUCCESS	Length: 32, Data: 50 03 2E 0A 18 0E 09 2B 15 03 83 F9 18 02 88 03 1B 00 00 00 00 00 00 00 00 00 00 00 00 00 00 00 	
681	17:26:27.480	0.00000140	WitMotion.exe	IOCTL_SERIAL_WAIT_ON_MASK           	COM6	SUCCESS		
682	17:26:27.480	0.00563520	WitMotion.exe	IOCTL_SERIAL_WAIT_ON_MASK           	COM6	SUCCESS		
683	17:26:27.480	0.00000210	WitMotion.exe	IRP_MJ_READ                         	COM6	SUCCESS	Length: 19, Data: 00 00 00 08 29 00 00 00 00 00 00 00 00 00 00 00 00 D2 12 	
684	17:26:27.484	0.00008440	WitMotion.exe	IRP_MJ_WRITE                        	COM6	SUCCESS	Length: 8, Data: 50 03 00 30 00 17 08 4A 	
685	17:26:27.486	0.00000220	WitMotion.exe	IOCTL_SERIAL_WAIT_ON_MASK           	COM6	SUCCESS		
686	17:26:27.486	0.00198380	WitMotion.exe	IOCTL_SERIAL_WAIT_ON_MASK           	COM6	SUCCESS		
687	17:26:27.486	0.00000140	WitMotion.exe	IRP_MJ_READ                         	COM6	SUCCESS	Length: 32, Data: 50 03 2E 0A 18 0E 09 2B 15 03 88 F9 21 02 87 03 1F 00 00 00 00 00 00 00 00 00 00 00 00 00 00 00 	
688	17:26:27.488	0.00000560	WitMotion.exe	IOCTL_SERIAL_WAIT_ON_MASK           	COM6	SUCCESS		
689	17:26:27.488	0.00691350	WitMotion.exe	IOCTL_SERIAL_WAIT_ON_MASK           	COM6	SUCCESS		
690	17:26:27.488	0.00000190	WitMotion.exe	IRP_MJ_READ                         	COM6	SUCCESS	Length: 19, Data: 00 00 00 08 23 00 00 00 00 00 00 00 00 00 00 00 00 10 5E 	
691	17:26:27.493	0.00008530	WitMotion.exe	IRP_MJ_WRITE                        	COM6	SUCCESS	Length: 8, Data: 50 03 00 30 00 17 08 4A 	
692	17:26:27.495	0.00000180	WitMotion.exe	IOCTL_SERIAL_WAIT_ON_MASK           	COM6	SUCCESS		
693	17:26:27.495	0.00204870	WitMotion.exe	IOCTL_SERIAL_WAIT_ON_MASK           	COM6	SUCCESS		
694	17:26:27.495	0.00000170	WitMotion.exe	IRP_MJ_READ                         	COM6	SUCCESS	Length: 32, Data: 50 03 2E 0A 18 0E 09 2B 15 03 92 F9 1E 02 8D 03 24 00 00 00 00 00 00 00 00 00 00 00 00 00 00 00 	
695	17:26:27.496	0.00000440	WitMotion.exe	IOCTL_SERIAL_WAIT_ON_MASK           	COM6	SUCCESS		
696	17:26:27.496	0.00605960	WitMotion.exe	IOCTL_SERIAL_WAIT_ON_MASK           	COM6	SUCCESS		
697	17:26:27.496	0.00000160	WitMotion.exe	IRP_MJ_READ                         	COM6	SUCCESS	Length: 19, Data: 00 00 00 08 29 00 00 00 00 00 00 00 00 00 00 00 00 B2 D7 	
698	17:26:27.502	0.00007760	WitMotion.exe	IRP_MJ_WRITE                        	COM6	SUCCESS	Length: 8, Data: 50 03 00 30 00 17 08 4A 	
699	17:26:27.503	0.00000130	WitMotion.exe	IOCTL_SERIAL_WAIT_ON_MASK           	COM6	SUCCESS		
700	17:26:27.503	0.00203280	WitMotion.exe	IOCTL_SERIAL_WAIT_ON_MASK           	COM6	SUCCESS		
701	17:26:27.503	0.00000150	WitMotion.exe	IRP_MJ_READ                         	COM6	SUCCESS	Length: 32, Data: 50 03 2E 0A 18 0E 09 2B 15 03 9C F9 21 02 83 03 1F 00 00 00 00 00 00 00 00 00 00 00 00 00 00 00 	
702	17:26:27.505	0.00000140	WitMotion.exe	IOCTL_SERIAL_WAIT_ON_MASK           	COM6	SUCCESS		
704	17:26:27.505	0.00000610	WitMotion.exe	IRP_MJ_READ                         	COM6	SUCCESS	Length: 19, Data: 00 00 00 08 1D 00 00 00 00 00 00 00 00 00 00 00 00 4C 10 	
705	17:26:27.509	0.00008100	WitMotion.exe	IRP_MJ_WRITE                        	COM6	SUCCESS	Length: 8, Data: 50 03 00 30 00 17 08 4A 	
706	17:26:27.511	0.00000600	WitMotion.exe	IOCTL_SERIAL_WAIT_ON_MASK           	COM6	SUCCESS		
707	17:26:27.511	0.00196840	WitMotion.exe	IOCTL_SERIAL_WAIT_ON_MASK           	COM6	SUCCESS		
708	17:26:27.511	0.00000170	WitMotion.exe	IRP_MJ_READ                         	COM6	SUCCESS	Length: 32, Data: 50 03 2E 0A 18 0E 09 2B 15 03 A1 F9 1B 02 8F 03 1E 00 00 00 00 00 00 00 00 00 00 00 00 00 00 00 	
709	17:26:27.514	0.00000490	WitMotion.exe	IOCTL_SERIAL_WAIT_ON_MASK           	COM6	SUCCESS		
710	17:26:27.514	0.00705690	WitMotion.exe	IOCTL_SERIAL_WAIT_ON_MASK           	COM6	SUCCESS		
711	17:26:27.514	0.00000170	WitMotion.exe	IRP_MJ_READ                         	COM6	SUCCESS	Length: 19, Data: 00 00 00 08 29 00 00 00 00 00 00 00 00 00 00 00 00 CB FA 	
712	17:26:27.519	0.00009100	WitMotion.exe	IRP_MJ_WRITE                        	COM6	SUCCESS	Length: 8, Data: 50 03 00 30 00 17 08 4A 	
713	17:26:27.520	0.00000630	WitMotion.exe	IOCTL_SERIAL_WAIT_ON_MASK           	COM6	SUCCESS		
714	17:26:27.520	0.00208960	WitMotion.exe	IOCTL_SERIAL_WAIT_ON_MASK           	COM6	SUCCESS		
715	17:26:27.520	0.00000160	WitMotion.exe	IRP_MJ_READ                         	COM6	SUCCESS	Length: 32, Data: 50 03 2E 0A 18 0E 09 2B 15 03 AB F9 1E 02 95 03 1B 00 00 00 00 00 00 00 00 00 00 00 00 00 00 00 	
716	17:26:27.523	0.00000500	WitMotion.exe	IOCTL_SERIAL_WAIT_ON_MASK           	COM6	SUCCESS		
717	17:26:27.523	0.00782210	WitMotion.exe	IOCTL_SERIAL_WAIT_ON_MASK           	COM6	SUCCESS		
719	17:26:27.529	0.00010680	WitMotion.exe	IRP_MJ_WRITE                        	COM6	SUCCESS	Length: 8, Data: 50 03 00 30 00 17 08 4A 	
720	17:26:27.530	0.00000540	WitMotion.exe	IOCTL_SERIAL_WAIT_ON_MASK           	COM6	SUCCESS		
721	17:26:27.531	0.00198670	WitMotion.exe	IOCTL_SERIAL_WAIT_ON_MASK           	COM6	SUCCESS		
722	17:26:27.531	0.00000150	WitMotion.exe	IRP_MJ_READ                         	COM6	SUCCESS	Length: 32, Data: 50 03 2E 0A 18 0E 09 2B 15 03 B5 F9 20 02 8F 03 21 00 00 00 00 00 00 00 00 00 00 00 00 00 00 00 	
724	17:26:27.532	0.00846440	WitMotion.exe	IOCTL_SERIAL_WAIT_ON_MASK           	COM6	SUCCESS		
725	17:26:27.533	0.00000380	WitMotion.exe	IRP_MJ_READ                         	COM6	SUCCESS	Length: 19, Data: 00 00 00 08 43 00 00 00 00 00 00 00 00 00 00 00 00 64 9B 	
726	17:26:27.540	0.00008540	WitMotion.exe	IRP_MJ_WRITE                        	COM6	SUCCESS	Length: 8, Data: 50 03 00 30 00 17 08 4A 	
727	17:26:27.542	0.00000470	WitMotion.exe	IOCTL_SERIAL_WAIT_ON_MASK           	COM6	SUCCESS		
728	17:26:27.542	0.00197030	WitMotion.exe	IOCTL_SERIAL_WAIT_ON_MASK           	COM6	SUCCESS		
729	17:26:27.542	0.00000170	WitMotion.exe	IRP_MJ_READ                         	COM6	SUCCESS	Length: 32, Data: 50 03 2E 0A 18 0E 09 2B 15 03 BF F9 1E 02 8F 03 19 00 00 00 00 00 00 00 00 00 00 00 00 00 00 00 	
730	17:26:27.543	0.00000160	WitMotion.exe	IOCTL_SERIAL_WAIT_ON_MASK           	COM6	SUCCESS		
731	17:26:27.543	0.00699830	WitMotion.exe	IOCTL_SERIAL_WAIT_ON_MASK           	COM6	SUCCESS		
732	17:26:27.543	0.00000160	WitMotion.exe	IRP_MJ_READ                         	COM6	SUCCESS	Length: 19, Data: 00 00 00 08 29 00 00 00 00 00 00 00 00 00 00 00 00 45 E3 	
733	17:26:27.549	0.00008360	WitMotion.exe	IRP_MJ_WRITE                        	COM6	SUCCESS	Length: 8, Data: 50 03 00 30 00 17 08 4A 	
735	17:26:27.550	0.00189510	WitMotion.exe	IOCTL_SERIAL_WAIT_ON_MASK           	COM6	SUCCESS		
736	17:26:27.550	0.00000160	WitMotion.exe	IRP_MJ_READ                         	COM6	SUCCESS	Length: 32, Data: 50 03 2E 0A 18 0E 09 2B 15 03 C9 F9 21 02 92 03 24 00 00 00 00 00 00 00 00 00 00 00 00 00 00 00 	
737	17:26:27.552	0.00000120	WitMotion.exe	IOCTL_SERIAL_WAIT_ON_MASK           	COM6	SUCCESS		
738	17:26:27.552	0.00742080	WitMotion.exe	IOCTL_SERIAL_WAIT_ON_MASK           	COM6	SUCCESS		
739	17:26:27.552	0.00000170	WitMotion.exe	IRP_MJ_READ                         	COM6	SUCCESS	Length: 19, Data: 00 00 00 08 36 00 00 00 00 00 00 00 00 00 00 00 00 92 AF 	
740	17:26:27.558	0.00008440	WitMotion.exe	IRP_MJ_WRITE                        	COM6	SUCCESS	Length: 8, Data: 50 03 00 30 00 17 08 4A 	
741	17:26:27.560	0.00000630	WitMotion.exe	IOCTL_SERIAL_WAIT_ON_MASK           	COM6	SUCCESS		
742	17:26:27.560	0.00208170	WitMotion.exe	IOCTL_SERIAL_WAIT_ON_MASK           	COM6	SUCCESS		
743	17:26:27.560	0.00000180	WitMotion.exe	IRP_MJ_READ                         	COM6	SUCCESS	Length: 32, Data: 50 03 2E 0A 18 0E 09 2B 15 03 D3 F9 18 02 8E 03 20 00 00 00 00 00 00 00 00 00 00 00 00 00 00 00 	
744	17:26:27.562	0.00000450	WitMotion.exe	IOCTL_SERIAL_WAIT_ON_MASK           	COM6	SUCCESS		
745	17:26:27.562	0.00764190	WitMotion.exe	IOCTL_SERIAL_WAIT_ON_MASK           	COM6	SUCCESS		
746	17:26:27.562	0.00000160	WitMotion.exe	IRP_MJ_READ                         	COM6	SUCCESS	Length: 19, Data: 00 00 00 08 29 00 00 00 00 00 00 00 00 00 00 00 00 54 D8 	
747	17:26:27.568	0.00008990	WitMotion.exe	IRP_MJ_WRITE                        	COM6	SUCCESS	Length: 8, Data: 50 03 00 30 00 17 08 4A 	
748	17:26:27.570	0.00000190	WitMotion.exe	IOCTL_SERIAL_WAIT_ON_MASK           	COM6	SUCCESS		
749	17:26:27.570	0.00202720	WitMotion.exe	IOCTL_SERIAL_WAIT_ON_MASK           	COM6	SUCCESS		
750	17:26:27.570	0.00000130	WitMotion.exe	IRP_MJ_READ                         	COM6	SUCCESS	Length: 32, Data: 50 03 2E 0A 18 0E 09 2B 15 03 DD F9 15 02 8D 03 1C 00 00 00 00 00 00 00 00 00 00 00 00 00 00 00 	
751	17:26:27.571	0.00000140	WitMotion.exe	IOCTL_SERIAL_WAIT_ON_MASK           	COM6	SUCCESS		
752	17:26:27.571	0.00993380	WitMotion.exe	IOCTL_SERIAL_WAIT_ON_MASK           	COM6	SUCCESS		
753	17:26:27.571	0.00000200	WitMotion.exe	IRP_MJ_READ                         	COM6	SUCCESS	Length: 19, Data: 00 00 00 08 30 00 00 00 00 00 00 00 00 00 00 00 00 6C 50 	
754	17:26:27.579	0.00009010	WitMotion.exe	IRP_MJ_WRITE                        	COM6	SUCCESS	Length: 8, Data: 50 03 00 30 00 17 08 4A 	
755	17:26:27.582	0.00000400	WitMotion.exe	IOCTL_SERIAL_WAIT_ON_MASK           	COM6	SUCCESS		
756	17:26:27.582	0.00197330	WitMotion.exe	IOCTL_SERIAL_WAIT_ON_MASK           	COM6	SUCCESS		
757	17:26:27.582	0.00000150	WitMotion.exe	IRP_MJ_READ                         	COM6	SUCCESS	Length: 32, Data: 50 03 2E 0A 18 0E 09 2B 15 03 E7 F9 22 02 8A 03 1B 00 00 00 00 00 00 00 00 00 00 00 00 00 00 00 	
758	17:26:27.584	0.00000170	WitMotion.exe	IOCTL_SERIAL_WAIT_ON_MASK           	COM6	SUCCESS		
759	17:26:27.584	0.00706750	WitMotion.exe	IOCTL_SERIAL_WAIT_ON_MASK           	COM6	SUCCESS		
760	17:26:27.584	0.00000150	WitMotion.exe	IRP_MJ_READ                         	COM6	SUCCESS	Length: 19, Data: 00 00 00 08 29 00 00 00 00 00 00 00 00 00 00 00 00 49 43 	
761	17:26:27.589	0.00011800	WitMotion.exe	IRP_MJ_WRITE                        	COM6	SUCCESS	Length: 8, Data: 50 03 00 30 00 17 08 4A 	
762	17:26:27.591	0.00000530	WitMotion.exe	IOCTL_SERIAL_WAIT_ON_MASK           	COM6	SUCCESS		
763	17:26:27.591	0.00206740	WitMotion.exe	IOCTL_SERIAL_WAIT_ON_MASK           	COM6	SUCCESS		
764	17:26:27.591	0.00000180	WitMotion.exe	IRP_MJ_READ                         	COM6	SUCCESS	Length: 32, Data: 50 03 2E 0A 18 0E 09 2C 15 00 09 F9 1C 02 8F 03 19 00 00 00 00 00 00 00 00 00 00 00 00 00 00 00 	
765	17:26:27.593	0.00000380	WitMotion.exe	IOCTL_SERIAL_WAIT_ON_MASK           	COM6	SUCCESS		
766	17:26:27.593	0.00718190	WitMotion.exe	IOCTL_SERIAL_WAIT_ON_MASK           	COM6	SUCCESS		
767	17:26:27.593	0.00000700	WitMotion.exe	IRP_MJ_READ                         	COM6	SUCCESS	Length: 19, Data: 00 00 00 08 36 00 00 00 00 00 00 00 00 00 00 00 00 05 36 	
768	17:26:27.598	0.00009740	WitMotion.exe	IRP_MJ_WRITE                        	COM6	SUCCESS	Length: 8, Data: 50 03 00 30 00 17 08 4A 	
769	17:26:27.600	0.00000620	WitMotion.exe	IOCTL_SERIAL_WAIT_ON_MASK           	COM6	SUCCESS		
770	17:26:27.600	0.00196220	WitMotion.exe	IOCTL_SERIAL_WAIT_ON_MASK           	COM6	SUCCESS		
771	17:26:27.600	0.00000210	WitMotion.exe	IRP_MJ_READ                         	COM6	SUCCESS	Length: 32, Data: 50 03 2E 0A 18 0E 09 2C 15 00 13 F9 19 02 90 03 1C 00 00 00 00 00 00 00 00 00 00 00 00 00 00 00 	
774	17:26:27.602	0.00000140	WitMotion.exe	IRP_MJ_READ                         	COM6	SUCCESS	Length: 19, Data: 00 00 00 08 29 00 00 00 00 00 00 00 00 00 00 00 00 24 83 	
775	17:26:27.608	0.00008430	WitMotion.exe	IRP_MJ_WRITE                        	COM6	SUCCESS	Length: 8, Data: 50 03 00 30 00 17 08 4A 	
776	17:26:27.610	0.00000570	WitMotion.exe	IOCTL_SERIAL_WAIT_ON_MASK           	COM6	SUCCESS		
777	17:26:27.610	0.00206660	WitMotion.exe	IOCTL_SERIAL_WAIT_ON_MASK           	COM6	SUCCESS		
778	17:26:27.610	0.00000180	WitMotion.exe	IRP_MJ_READ                         	COM6	SUCCESS	Length: 32, Data: 50 03 2E 0A 18 0E 09 2C 15 00 1D F9 1C 02 89 03 1C 00 00 00 00 00 00 00 00 00 00 00 00 00 00 00 	
779	17:26:27.612	0.00000470	WitMotion.exe	IOCTL_SERIAL_WAIT_ON_MASK           	COM6	SUCCESS		
780	17:26:27.612	0.00556380	WitMotion.exe	IOCTL_SERIAL_WAIT_ON_MASK           	COM6	SUCCESS		
781	17:26:27.612	0.00000410	WitMotion.exe	IRP_MJ_READ                         	COM6	SUCCESS	Length: 19, Data: 00 00 00 08 49 00 00 00 00 00 00 00 00 00 00 00 00 22 F8 	
782	17:26:27.616	0.00007970	WitMotion.exe	IRP_MJ_WRITE                        	COM6	SUCCESS	Length: 8, Data: 50 03 00 30 00 17 08 4A 	
783	17:26:27.617	0.00000160	WitMotion.exe	IOCTL_SERIAL_WAIT_ON_MASK           	COM6	SUCCESS		
784	17:26:27.617	0.00203850	WitMotion.exe	IOCTL_SERIAL_WAIT_ON_MASK           	COM6	SUCCESS		
785	17:26:27.617	0.00000140	WitMotion.exe	IRP_MJ_READ                         	COM6	SUCCESS	Length: 32, Data: 50 03 2E 0A 18 0E 09 2C 15 00 27 F9 1C 02 8C 03 18 00 00 00 00 00 00 00 00 00 00 00 00 00 00 00 	
786	17:26:27.620	0.00000130	WitMotion.exe	IOCTL_SERIAL_WAIT_ON_MASK           	COM6	SUCCESS		
787	17:26:27.620	0.00678990	WitMotion.exe	IOCTL_SERIAL_WAIT_ON_MASK           	COM6	SUCCESS		
788	17:26:27.620	0.00000130	WitMotion.exe	IRP_MJ_READ                         	COM6	SUCCESS	Length: 19, Data: 00 00 00 08 30 00 00 00 00 00 00 00 00 00 00 00 00 5C B9 	
789	17:26:27.625	0.00008180	WitMotion.exe	IRP_MJ_WRITE                        	COM6	SUCCESS	Length: 8, Data: 50 03 00 30 00 17 08 4A 	
791	17:26:27.626	0.00201420	WitMotion.exe	IOCTL_SERIAL_WAIT_ON_MASK           	COM6	SUCCESS		
792	17:26:27.626	0.00000160	WitMotion.exe	IRP_MJ_READ                         	COM6	SUCCESS	Length: 32, Data: 50 03 2E 0A 18 0E 09 2C 15 00 2C F9 18 02 91 03 22 00 00 00 00 00 00 00 00 00 00 00 00 00 00 00 	
793	17:26:27.628	0.00000100	WitMotion.exe	IOCTL_SERIAL_WAIT_ON_MASK           	COM6	SUCCESS		
794	17:26:27.628	0.00649610	WitMotion.exe	IOCTL_SERIAL_WAIT_ON_MASK           	COM6	SUCCESS		
795	17:26:27.628	0.00000170	WitMotion.exe	IRP_MJ_READ                         	COM6	SUCCESS	Length: 19, Data: 00 00 00 08 1D 00 00 00 00 00 00 00 00 00 00 00 00 C8 8B 	
796	17:26:27.633	0.00007800	WitMotion.exe	IRP_MJ_WRITE                        	COM6	SUCCESS	Length: 8, Data: 50 03 00 30 00 17 08 4A 	
797	17:26:27.635	0.00000160	WitMotion.exe	IOCTL_SERIAL_WAIT_ON_MASK           	COM6	SUCCESS		
798	17:26:27.635	0.00198740	WitMotion.exe	IOCTL_SERIAL_WAIT_ON_MASK           	COM6	SUCCESS		
799	17:26:27.635	0.00000180	WitMotion.exe	IRP_MJ_READ                         	COM6	SUCCESS	Length: 32, Data: 50 03 2E 0A 18 0E 09 2C 15 00 36 F9 17 02 88 03 1D 00 00 00 00 00 00 00 00 00 00 00 00 00 00 00 	
800	17:26:27.637	0.00000170	WitMotion.exe	IOCTL_SERIAL_WAIT_ON_MASK           	COM6	SUCCESS		
801	17:26:27.637	0.00885060	WitMotion.exe	IOCTL_SERIAL_WAIT_ON_MASK           	COM6	SUCCESS		
802	17:26:27.637	0.00000150	WitMotion.exe	IRP_MJ_READ                         	COM6	SUCCESS	Length: 19, Data: 00 00 00 08 29 00 00 00 00 00 00 00 00 00 00 00 00 4E 7D 	
803	17:26:27.644	0.00008740	WitMotion.exe	IRP_MJ_WRITE                        	COM6	SUCCESS	Length: 8, Data: 50 03 00 30 00 17 08 4A 	
805	17:26:27.646	0.00000180	WitMotion.exe	IRP_MJ_READ                         	COM6	SUCCESS	Length: 32, Data: 50 03 2E 0A 18 0E 09 2C 15 00 40 F9 1D 02 95 03 1F 00 00 00 00 00 00 00 00 00 00 00 00 00 00 00 	
806	17:26:27.646	0.00199350	WitMotion.exe	IOCTL_SERIAL_WAIT_ON_MASK           	COM6	SUCCESS		
807	17:26:27.648	0.00000510	WitMotion.exe	IOCTL_SERIAL_WAIT_ON_MASK           	COM6	SUCCESS		
808	17:26:27.648	0.00644910	WitMotion.exe	IOCTL_SERIAL_WAIT_ON_MASK           	COM6	SUCCESS		
809	17:26:27.648	0.00000170	WitMotion.exe	IRP_MJ_READ                         	COM6	SUCCESS	Length: 19, Data: 00 00 00 08 29 00 00 00 00 00 00 00 00 00 00 00 00 99 F5 	
810	17:26:27.653	0.00007650	WitMotion.exe	IRP_MJ_WRITE                        	COM6	SUCCESS	Length: 8, Data: 50 03 00 30 00 17 08 4A 	
811	17:26:27.655	0.00000150	WitMotion.exe	IOCTL_SERIAL_WAIT_ON_MASK           	COM6	SUCCESS		
812	17:26:27.655	0.00199250	WitMotion.exe	IOCTL_SERIAL_WAIT_ON_MASK           	COM6	SUCCESS		
813	17:26:27.655	0.00000190	WitMotion.exe	IRP_MJ_READ                         	COM6	SUCCESS	Length: 32, Data: 50 03 2E 0A 18 0E 09 2C 15 00 4A F9 21 02 90 03 18 00 00 00 00 00 00 00 00 00 00 00 00 00 00 00 	
814	17:26:27.657	0.00000120	WitMotion.exe	IOCTL_SERIAL_WAIT_ON_MASK           	COM6	SUCCESS		
815	17:26:27.657	0.00724030	WitMotion.exe	IOCTL_SERIAL_WAIT_ON_MASK           	COM6	SUCCESS		
816	17:26:27.657	0.00000150	WitMotion.exe	IRP_MJ_READ                         	COM6	SUCCESS	Length: 19, Data: 00 00 00 08 36 00 00 00 00 00 00 00 00 00 00 00 00 8D D1 	
817	17:26:27.662	0.00008690	WitMotion.exe	IRP_MJ_WRITE                        	COM6	SUCCESS	Length: 8, Data: 50 03 00 30 00 17 08 4A 	
819	17:26:27.664	0.00210230	WitMotion.exe	IOCTL_SERIAL_WAIT_ON_MASK           	COM6	SUCCESS		
820	17:26:27.664	0.00000150	WitMotion.exe	IRP_MJ_READ                         	COM6	SUCCESS	Length: 32, Data: 50 03 2E 0A 18 0E 09 2C 15 00 54 F9 14 02 90 03 25 00 00 00 00 00 00 00 00 00 00 00 00 00 00 00 	
821	17:26:27.666	0.00000570	WitMotion.exe	IOCTL_SERIAL_WAIT_ON_MASK           	COM6	SUCCESS		
822	17:26:27.666	0.00780510	WitMotion.exe	IOCTL_SERIAL_WAIT_ON_MASK           	COM6	SUCCESS		
823	17:26:27.666	0.00000320	WitMotion.exe	IRP_MJ_READ                         	COM6	SUCCESS	Length: 19, Data: 00 00 00 08 29 00 00 00 00 00 00 00 00 00 00 00 00 B5 5D 	
824	17:26:27.671	0.00008640	WitMotion.exe	IRP_MJ_WRITE                        	COM6	SUCCESS	Length: 8, Data: 50 03 00 30 00 17 08 4A 	
825	17:26:27.674	0.00000160	WitMotion.exe	IOCTL_SERIAL_WAIT_ON_MASK           	COM6	SUCCESS		
826	17:26:27.674	0.00200690	WitMotion.exe	IOCTL_SERIAL_WAIT_ON_MASK           	COM6	SUCCESS		
827	17:26:27.674	0.00000180	WitMotion.exe	IRP_MJ_READ                         	COM6	SUCCESS	Length: 32, Data: 50 03 2E 0A 18 0E 09 2C 15 00 5E F9 1C 02 8F 03 1C 00 00 00 00 00 00 00 00 00 00 00 00 00 00 00 	
828	17:26:27.676	0.00000110	WitMotion.exe	IOCTL_SERIAL_WAIT_ON_MASK           	COM6	SUCCESS		
829	17:26:27.676	0.00613260	WitMotion.exe	IOCTL_SERIAL_WAIT_ON_MASK           	COM6	SUCCESS		
830	17:26:27.676	0.00000150	WitMotion.exe	IRP_MJ_READ                         	COM6	SUCCESS	Length: 19, Data: 00 00 00 08 29 00 00 00 00 00 00 00 00 00 00 00 00 33 2E 	
831	17:26:27.680	0.00008260	WitMotion.exe	IRP_MJ_WRITE                        	COM6	SUCCESS	Length: 8, Data: 50 03 00 30 00 17 08 4A 	
832	17:26:27.682	0.00000130	WitMotion.exe	IOCTL_SERIAL_WAIT_ON_MASK           	COM6	SUCCESS		
833	17:26:27.682	0.00205660	WitMotion.exe	IOCTL_SERIAL_WAIT_ON_MASK           	COM6	SUCCESS		
834	17:26:27.682	0.00000180	WitMotion.exe	IRP_MJ_READ                         	COM6	SUCCESS	Length: 32, Data: 50 03 2E 0A 18 0E 09 2C 15 00 63 F9 19 02 8B 03 20 00 00 00 00 00 00 00 00 00 00 00 00 00 00 00 	
835	17:26:27.684	0.00000130	WitMotion.exe	IOCTL_SERIAL_WAIT_ON_MASK           	COM6	SUCCESS		
